
CLK_GetCPUFreq : 48000000
CLK_GetHCLKFreq : 48000000
CLK_GetHXTFreq :        0
CLK_GetLXTFreq :        0
CLK_GetPCLK0Freq : 48000000
CLK_GetPCLK1Freq : 48000000
Reset Source <0x00000041>
0)POR Reset Flag
6)Reserved.
power on from POR
task1 id = 0
task2 id = 1
task3 id = 2
BP_TYPE(PF14)=1 -> 2 Wire SMBus slave profile
ADC VDD=2985 mV bandgap_raw=1646 bandgap_trim=4095 low<=896 mV high>=2090 mV
ADC0_CH11 addr select raw=0 mv=0 level=LOW
SMBus address matrix: I2C1 addr7=0x60 write=0xC0 read=0xC1, USCI0 addr7=0x61 write=0xC2 read=0xC3
ADC0_CH12 SMBus role raw=0 mv=0 level=LOW
SMBus role matrix: UBM
ADC0_CH13 user option raw=0 mv=0 level=LOW
User option CH13: ON
ADC0_CH14 SGPIO group raw=4094 mv=2984 level=HIGH
SGPIO group matrix: SGPIO OD0-OD3
ADC0_CH15 user option raw=4092 mv=2983 level=HIGH
User option CH15: ON
PC0/I2C0_SDA SMBus slave open-drain
PC1/I2C0_SCL SMBus slave open-drain
I2C0 SMBus slave addr7=0x6A write=0xD4 read=0xD5, PEC optional in software
PA13/I2C1_SDA SMBus slave open-drain
PA12/I2C1_SCL SMBus slave open-drain
I2C1 SMBus slave addr7=0x60 write=0xC0 read=0xC1, profile=UBM controller, UBM checksum seed 0xA5
PD0/USCI0_CLK SMBus slave open-drain
PD1/USCI0_DAT0 SMBus slave open-drain
USCI0 SMBus slave addr7=0x61 write=0xC2 read=0xC3, profile=UBM controller, UBM checksum seed 0xA5
SMBus role: I2C1/USCI0 UBM controller, I2C0 Generic SMBus, UBM checksum seed 0xA5
SMBus RX cmd=0x00 (UBM_OPERATIONAL_STATE) bus=I2C1
SMBus RX info raw=2 payload=1 proto=11
SMBus RX pec rs=1 pec=0 valid=1
SMBus RX raw=00 9B proto=UBM_CONTROLLER_READ bus=I2C1
SMBus TX cmd=0x00 (UBM_OPERATIONAL_STATE) proto=11 (UBM_CONTROLLER_READ) len=2 bus=I2C1 raw=03 58
SMBus RX cmd=0x01 (UBM_LAST_COMMAND_STATUS) bus=I2C1
SMBus RX info raw=2 payload=1 proto=11
SMBus RX pec rs=1 pec=0 valid=1
SMBus RX raw=01 9A proto=UBM_CONTROLLER_READ bus=I2C1
SMBus TX cmd=0x01 (UBM_LAST_COMMAND_STATUS) proto=11 (UBM_CONTROLLER_READ) len=2 bus=I2C1 raw=01 5A
SMBus RX cmd=0x02 (UBM_SILICON_IDENTITY_VERSION) bus=I2C1
SMBus RX info raw=2 payload=1 proto=11
SMBus RX pec rs=1 pec=0 valid=1
SMBus RX raw=02 99 proto=UBM_CONTROLLER_READ bus=I2C1
SMBus TX cmd=0x02 (UBM_SILICON_IDENTITY_VERSION) proto=11 (UBM_CONTROLLER_READ) len=15 bus=I2C1 raw=15 AB 10 00 32 00 00 00 00 00 00 01 55 42 C1
SMBus RX cmd=0x03 (UBM_PROGRAMMING_UPDATE_MODE_CAPABILITIES) bus=I2C1
SMBus RX info raw=2 payload=1 proto=11
SMBus RX pec rs=1 pec=0 valid=1
SMBus RX raw=03 98 proto=UBM_CONTROLLER_READ bus=I2C1
SMBus TX cmd=0x03 (UBM_PROGRAMMING_UPDATE_MODE_CAPABILITIES) proto=11 (UBM_CONTROLLER_READ) len=2 bus=I2C1 raw=01 5A
SMBus RX cmd=0x30 (UBM_HOST_FACING_CONNECTOR_INFO) bus=I2C1
SMBus RX info raw=2 payload=1 proto=11
SMBus RX pec rs=1 pec=0 valid=1
SMBus RX raw=30 6B proto=UBM_CONTROLLER_READ bus=I2C1
SMBus TX cmd=0x30 (UBM_HOST_FACING_CONNECTOR_INFO) proto=11 (UBM_CONTROLLER_READ) len=2 bus=I2C1 raw=01 5A
SMBus RX cmd=0x31 (UBM_BACKPLANE_INFO) bus=I2C1
SMBus RX info raw=2 payload=1 proto=11
SMBus RX pec rs=1 pec=0 valid=1
SMBus RX raw=31 6A proto=UBM_CONTROLLER_READ bus=I2C1
SMBus TX cmd=0x31 (UBM_BACKPLANE_INFO) proto=11 (UBM_CONTROLLER_READ) len=2 bus=I2C1 raw=01 5A
SMBus RX cmd=0x32 (UBM_STARTING_SLOT) bus=I2C1
SMBus RX info raw=2 payload=1 proto=11
SMBus RX pec rs=1 pec=0 valid=1
SMBus RX raw=32 69 proto=UBM_CONTROLLER_READ bus=I2C1
SMBus TX cmd=0x32 (UBM_STARTING_SLOT) proto=11 (UBM_CONTROLLER_READ) len=2 bus=I2C1 raw=00 5B
SMBus RX cmd=0x33 (UBM_CAPABILITIES) bus=I2C1
SMBus RX info raw=2 payload=1 proto=11
SMBus RX pec rs=1 pec=0 valid=1
SMBus RX raw=33 68 proto=UBM_CONTROLLER_READ bus=I2C1
SMBus TX cmd=0x33 (UBM_CAPABILITIES) proto=11 (UBM_CONTROLLER_READ) len=3 bus=I2C1 raw=80 60 7B
SMBus RX cmd=0x34 (UBM_FEATURES) bus=I2C1
SMBus RX info raw=2 payload=1 proto=11
SMBus RX pec rs=1 pec=0 valid=1
SMBus RX raw=34 67 proto=UBM_CONTROLLER_READ bus=I2C1
SMBus TX cmd=0x34 (UBM_FEATURES) proto=11 (UBM_CONTROLLER_READ) len=3 bus=I2C1 raw=00 00 5B
[SMBus I2C1] write done cmd=0x34
SMBus RX cmd=0x34 (UBM_FEATURES) bus=I2C1
SMBus RX info raw=4 payload=3 proto=12
SMBus RX pec rs=0 pec=0 valid=1
SMBus RX raw=34 00 00 67 proto=UBM_CONTROLLER_WRITE bus=I2C1
SMBus TX cmd=0x01 (UBM_LAST_COMMAND_STATUS) proto=11 (UBM_CONTROLLER_READ) len=2 bus=I2C1 raw=01 5A
SMBus RX cmd=0x01 (UBM_LAST_COMMAND_STATUS) bus=I2C1
SMBus RX info raw=2 payload=1 proto=11
SMBus RX pec rs=1 pec=0 valid=1
SMBus RX raw=01 9A proto=UBM_CONTROLLER_READ bus=I2C1
SMBus TX cmd=0x35 (UBM_CHANGE_COUNT) proto=11 (UBM_CONTROLLER_READ) len=3 bus=I2C1 raw=01 00 5A
SMBus RX cmd=0x35 (UBM_CHANGE_COUNT) bus=I2C1
SMBus RX info raw=2 payload=1 proto=11
SMBus RX pec rs=1 pec=0 valid=1
SMBus RX raw=35 66 proto=UBM_CONTROLLER_READ bus=I2C1
SMBus TX cmd=0x01 (UBM_LAST_COMMAND_STATUS) proto=11 (UBM_CONTROLLER_READ) len=2 bus=I2C1 raw=01 5A
[SMBus I2C1] write done cmd=0x35
SMBus RX cmd=0x35 (UBM_CHANGE_COUNT) bus=I2C1
SMBus RX info raw=4 payload=3 proto=12
SMBus RX pec rs=0 pec=0 valid=1
SMBus RX raw=35 01 00 65 proto=UBM_CONTROLLER_WRITE bus=I2C1
[SMBus I2C1] write done cmd=0x36
SMBus RX cmd=0x01 (UBM_LAST_COMMAND_STATUS) bus=I2C1
SMBus RX info raw=2 payload=1 proto=11
SMBus RX pec rs=1 pec=0 valid=1
SMBus RX raw=01 9A proto=UBM_CONTROLLER_READ bus=I2C1
SMBus TX cmd=0x40 (UBM_DFC_STATUS_CONTROL_DESCRIPTOR) proto=11 (UBM_CONTROLLER_READ) len=9 bus=I2C1 raw=01 10 00 00 00 01 00 00 49
SMBus RX cmd=0x36 (UBM_DFC_STATUS_CONTROL_DESCRIPTOR_INDEX) bus=I2C1
SMBus RX info raw=3 payload=2 proto=12
SMBus RX pec rs=0 pec=0 valid=1
SMBus RX raw=36 00 65 proto=UBM_CONTROLLER_WRITE bus=I2C1
[SMBus I2C1] write done cmd=0x36
SMBus RX cmd=0x40 (UBM_DFC_STATUS_CONTROL_DESCRIPTOR) bus=I2C1
SMBus RX info raw=2 payload=1 proto=11
SMBus RX pec rs=1 pec=0 valid=1
SMBus RX raw=40 5B proto=UBM_CONTROLLER_READ bus=I2C1
SMBus TX cmd=0x40 (UBM_DFC_STATUS_CONTROL_DESCRIPTOR) proto=11 (UBM_CONTROLLER_READ) len=9 bus=I2C1 raw=01 11 00 00 00 01 00 00 48
SMBus RX cmd=0x36 (UBM_DFC_STATUS_CONTROL_DESCRIPTOR_INDEX) bus=I2C1
SMBus RX info raw=3 payload=2 proto=12
SMBus RX pec rs=0 pec=0 valid=1
SMBus RX raw=36 01 64 proto=UBM_CONTROLLER_WRITE bus=I2C1
SMBus TX cmd=0x20 (UBM_ENTER_PROGRAMMABLE_UPDATE_MODE) proto=11 (UBM_CONTROLLER_READ) len=6 bus=I2C1 raw=B8 55 42 4D 00 BF
SMBus RX cmd=0x40 (UBM_DFC_STATUS_CONTROL_DESCRIPTOR) bus=I2C1
SMBus RX info raw=2 payload=1 proto=11
SMBus RX pec rs=1 pec=0 valid=1
SMBus RX raw=40 5B proto=UBM_CONTROLLER_READ bus=I2C1
[SMBus I2C1] write done cmd=0x20
SMBus RX cmd=0x20 (UBM_ENTER_PROGRAMMABLE_UPDATE_MODE) bus=I2C1
SMBus RX info raw=2 payload=1 proto=11
SMBus RX pec rs=1 pec=0 valid=1
SMBus RX raw=20 7B proto=UBM_CONTROLLER_READ bus=I2C1
SMBus TX cmd=0x00 (UBM_OPERATIONAL_STATE) proto=11 (UBM_CONTROLLER_READ) len=2 bus=I2C1 raw=04 57
SMBus RX cmd=0x20 (UBM_ENTER_PROGRAMMABLE_UPDATE_MODE) bus=I2C1
SMBus RX info raw=7 payload=6 proto=12
SMBus RX pec rs=0 pec=0 valid=1
SMBus RX raw=20 B8 55 42 4D 01 DE proto=UBM_CONTROLLER_WRITE bus=I2C1
[SMBus I2C1] write done cmd=0x21
SMBus RX cmd=0x00 (UBM_OPERATIONAL_STATE) bus=I2C1
SMBus RX info raw=2 payload=1 proto=11
SMBus RX pec rs=1 pec=0 valid=1
SMBus RX raw=00 9B proto=UBM_CONTROLLER_READ bus=I2C1
SMBus TX cmd=0x22 (UBM_EXIT_PROGRAMMABLE_UPDATE_MODE) proto=11 (UBM_CONTROLLER_READ) len=5 bus=I2C1 raw=55 42 4D 00 77
SMBus RX cmd=0x21 (UBM_PROGRAMMABLE_MODE_DATA_TRANSFER) bus=I2C1
SMBus RX info raw=6 payload=5 proto=12
SMBus RX pec rs=0 pec=0 valid=1
SMBus RX raw=21 00 02 AA 55 79 proto=UBM_CONTROLLER_WRITE bus=I2C1
SMBus RX cmd=0x22 (UBM_EXIT_PROGRAMMABLE_UPDATE_MODE) bus=I2C1
SMBus RX info raw=2 payload=1 proto=11
SMBus RX pec rs=1 pec=0 valid=1
SMBus RX raw=22 79 proto=UBM_CONTROLLER_READ bus=I2C1
[SMBus I2C1] write done cmd=0x22
SMBus RX cmd=0x22 (UBM_EXIT_PROGRAMMABLE_UPDATE_MODE) bus=I2C1
SMBus RX info raw=6 payload=5 proto=12
SMBus RX pec rs=0 pec=0 valid=1
SMBus RX raw=22 55 42 4D 01 94 proto=UBM_CONTROLLER_WRITE bus=I2C1
SMBus TX cmd=0x00 (UBM_OPERATIONAL_STATE) proto=11 (UBM_CONTROLLER_READ) len=2 bus=I2C1 raw=03 58
SMBus RX cmd=0x00 (UBM_OPERATIONAL_STATE) bus=I2C1
SMBus RX info raw=2 payload=1 proto=11
SMBus RX pec rs=1 pec=0 valid=1
SMBus RX raw=00 9B proto=UBM_CONTROLLER_READ bus=I2C1
[SMBus I2C1] write done cmd=0x37
SMBus RX cmd=0x37 (UBM_CABLE_CONTIGUOUS_CHECK) bus=I2C1
SMBus RX info raw=3 payload=2 proto=12
SMBus RX pec rs=0 pec=0 valid=1
SMBus RX raw=37 00 64 proto=UBM_CONTROLLER_WRITE bus=I2C1
SMBus RX cmd=0x38 (UBM_CCC_RESULT_INDEX) bus=I2C1
SMBus RX info raw=3 payload=2 proto=12
SMBus RX pec rs=0 pec=0 valid=1
SMBus RX raw=38 00 63 proto=UBM_CONTROLLER_WRITE bus=I2C1
[SMBus I2C1] write done cmd=0x38
SMBus RX cmd=0x41 (UBM_CCC_RESULT_DESCRIPTOR) bus=I2C1
SMBus RX info raw=2 payload=1 proto=11
SMBus RX pec rs=1 pec=0 valid=1
SMBus RX raw=41 5A proto=UBM_CONTROLLER_READ bus=I2C1
SMBus TX cmd=0x41 (UBM_CCC_RESULT_DESCRIPTOR) proto=11 (UBM_CONTROLLER_READ) len=36 bus=I2C1 raw=A0 A1 A2 A3 A4 A5 A6 A7 A8 A9 AA AB AC AD AE AF B0 B1 B2 B3 B4 B5 B6 B7 B8 B9 BA BB BC BD BE BF C0 C1 C2 28
SMBus RX cmd=0x50 (UBM_FLEX_IO_DESCRIPTOR_INDEX) bus=I2C1
SMBus RX info raw=3 payload=2 proto=12
SMBus RX pec rs=0 pec=0 valid=1
SMBus RX raw=50 00 4B proto=UBM_CONTROLLER_WRITE bus=I2C1
[SMBus I2C1] write done cmd=0x50
SMBus RX cmd=0x51 (UBM_FLEX_IO_DESCRIPTOR) bus=I2C1
SMBus RX info raw=2 payload=1 proto=11
SMBus RX pec rs=1 pec=0 valid=1
SMBus RX raw=51 4A proto=UBM_CONTROLLER_READ bus=I2C1
SMBus TX cmd=0x51 (UBM_FLEX_IO_DESCRIPTOR) proto=11 (UBM_CONTROLLER_READ) len=6 bus=I2C1 raw=10 11 12 13 14 01
SMBus RX cmd=0x60 (UBM_POWER_EVENT_DATA) bus=I2C1
SMBus RX info raw=2 payload=1 proto=11
SMBus RX pec rs=1 pec=0 valid=1
SMBus RX raw=60 3B proto=UBM_CONTROLLER_READ bus=I2C1
SMBus TX cmd=0x60 (UBM_POWER_EVENT_DATA) proto=11 (UBM_CONTROLLER_READ) len=33 bus=I2C1 raw=60 61 62 63 64 65 66 67 68 69 6A 6B 6C 6D 6E 6F 70 71 72 73 74 75 76 77 78 79 7A 7B 7C 7D 7E 7F 6B
SMBus RX cmd=0x34 (UBM_FEATURES) bus=I2C1
SMBus RX info raw=4 payload=3 proto=12
SMBus RX pec rs=0 pec=0 valid=1
SMBus RX raw=34 00 00 98 proto=UBM_CONTROLLER_WRITE bus=I2C1
[SMBus I2C1] write done cmd=0x34
SMBus RX cmd=0x01 (UBM_LAST_COMMAND_STATUS) bus=I2C1
SMBus RX info raw=2 payload=1 proto=11
SMBus RX pec rs=1 pec=0 valid=1
SMBus RX raw=01 9A proto=UBM_CONTROLLER_READ bus=I2C1
SMBus TX cmd=0x01 (UBM_LAST_COMMAND_STATUS) proto=11 (UBM_CONTROLLER_READ) len=2 bus=I2C1 raw=02 59
SMBus RX cmd=0x00 (UBM_OPERATIONAL_STATE) bus=I2C1
SMBus RX info raw=2 payload=1 proto=11
SMBus RX pec rs=1 pec=0 valid=1
SMBus RX raw=00 9B proto=UBM_CONTROLLER_READ bus=I2C1
SMBus TX cmd=0x00 (UBM_OPERATIONAL_STATE) proto=11 (UBM_CONTROLLER_READ) len=2 bus=I2C1 raw=03 58
SMBus RX cmd=0x01 (UBM_LAST_COMMAND_STATUS) bus=I2C1
SMBus RX info raw=2 payload=1 proto=11
SMBus RX pec rs=1 pec=0 valid=1
SMBus RX raw=01 9A proto=UBM_CONTROLLER_READ bus=I2C1
SMBus TX cmd=0x01 (UBM_LAST_COMMAND_STATUS) proto=11 (UBM_CONTROLLER_READ) len=2 bus=I2C1 raw=02 59
SMBus RX cmd=0x02 (UBM_SILICON_IDENTITY_VERSION) bus=I2C1
SMBus RX info raw=2 payload=1 proto=11
SMBus RX pec rs=1 pec=0 valid=1
SMBus RX raw=02 99 proto=UBM_CONTROLLER_READ bus=I2C1
SMBus TX cmd=0x02 (UBM_SILICON_IDENTITY_VERSION) proto=11 (UBM_CONTROLLER_READ) len=15 bus=I2C1 raw=15 AB 10 00 32 00 00 00 00 00 00 01 55 42 C1
SMBus RX cmd=0x03 (UBM_PROGRAMMING_UPDATE_MODE_CAPABILITIES) bus=I2C1
SMBus RX info raw=2 payload=1 proto=11
SMBus RX pec rs=1 pec=0 valid=1
SMBus RX raw=03 98 proto=UBM_CONTROLLER_READ bus=I2C1
SMBus TX cmd=0x03 (UBM_PROGRAMMING_UPDATE_MODE_CAPABILITIES) proto=11 (UBM_CONTROLLER_READ) len=2 bus=I2C1 raw=01 5A
SMBus RX cmd=0x30 (UBM_HOST_FACING_CONNECTOR_INFO) bus=I2C1
SMBus RX info raw=2 payload=1 proto=11
SMBus RX pec rs=1 pec=0 valid=1
SMBus RX raw=30 6B proto=UBM_CONTROLLER_READ bus=I2C1
SMBus TX cmd=0x30 (UBM_HOST_FACING_CONNECTOR_INFO) proto=11 (UBM_CONTROLLER_READ) len=2 bus=I2C1 raw=01 5A
SMBus RX cmd=0x31 (UBM_BACKPLANE_INFO) bus=I2C1
SMBus RX info raw=2 payload=1 proto=11
SMBus RX pec rs=1 pec=0 valid=1
SMBus RX raw=31 6A proto=UBM_CONTROLLER_READ bus=I2C1
SMBus TX cmd=0x31 (UBM_BACKPLANE_INFO) proto=11 (UBM_CONTROLLER_READ) len=2 bus=I2C1 raw=01 5A
SMBus RX cmd=0x32 (UBM_STARTING_SLOT) bus=I2C1
SMBus RX info raw=2 payload=1 proto=11
SMBus RX pec rs=1 pec=0 valid=1
SMBus RX raw=32 69 proto=UBM_CONTROLLER_READ bus=I2C1
SMBus TX cmd=0x32 (UBM_STARTING_SLOT) proto=11 (UBM_CONTROLLER_READ) len=2 bus=I2C1 raw=00 5B
SMBus RX cmd=0x33 (UBM_CAPABILITIES) bus=I2C1
SMBus RX info raw=2 payload=1 proto=11
SMBus RX pec rs=1 pec=0 valid=1
SMBus RX raw=33 68 proto=UBM_CONTROLLER_READ bus=I2C1
SMBus TX cmd=0x33 (UBM_CAPABILITIES) proto=11 (UBM_CONTROLLER_READ) len=3 bus=I2C1 raw=80 60 7B
SMBus RX cmd=0x34 (UBM_FEATURES) bus=I2C1
SMBus RX info raw=2 payload=1 proto=11
SMBus RX pec rs=1 pec=0 valid=1
SMBus RX raw=34 67 proto=UBM_CONTROLLER_READ bus=I2C1
SMBus TX cmd=0x34 (UBM_FEATURES) proto=11 (UBM_CONTROLLER_READ) len=3 bus=I2C1 raw=00 00 5B
SMBus RX cmd=0x34 (UBM_FEATURES) bus=I2C1
SMBus RX info raw=4 payload=3 proto=12
SMBus RX pec rs=0 pec=0 valid=1
SMBus RX raw=34 00 00 67 proto=UBM_CONTROLLER_WRITE bus=I2C1
[SMBus I2C1] write done cmd=0x34
SMBus RX cmd=0x01 (UBM_LAST_COMMAND_STATUS) bus=I2C1
SMBus RX info raw=2 payload=1 proto=11
SMBus RX pec rs=1 pec=0 valid=1
SMBus RX raw=01 9A proto=UBM_CONTROLLER_READ bus=I2C1
SMBus TX cmd=0x01 (UBM_LAST_COMMAND_STATUS) proto=11 (UBM_CONTROLLER_READ) len=2 bus=I2C1 raw=01 5A
SMBus RX cmd=0x35 (UBM_CHANGE_COUNT) bus=I2C1
SMBus RX info raw=2 payload=1 proto=11
SMBus RX pec rs=1 pec=0 valid=1
SMBus RX raw=35 66 proto=UBM_CONTROLLER_READ bus=I2C1
SMBus TX cmd=0x35 (UBM_CHANGE_COUNT) proto=11 (UBM_CONTROLLER_READ) len=3 bus=I2C1 raw=01 00 5A
SMBus RX cmd=0x35 (UBM_CHANGE_COUNT) bus=I2C1
SMBus RX info raw=4 payload=3 proto=12
SMBus RX pec rs=0 pec=0 valid=1
SMBus RX raw=35 01 00 65 proto=UBM_CONTROLLER_WRITE bus=I2C1
[SMBus I2C1] write done cmd=0x35
SMBus RX cmd=0x01 (UBM_LAST_COMMAND_STATUS) bus=I2C1
SMBus RX info raw=2 payload=1 proto=11
SMBus RX pec rs=1 pec=0 valid=1
SMBus RX raw=01 9A proto=UBM_CONTROLLER_READ bus=I2C1
SMBus TX cmd=0x01 (UBM_LAST_COMMAND_STATUS) proto=11 (UBM_CONTROLLER_READ) len=2 bus=I2C1 raw=01 5A
SMBus RX cmd=0x36 (UBM_DFC_STATUS_CONTROL_DESCRIPTOR_INDEX) bus=I2C1
SMBus RX info raw=3 payload=2 proto=12
SMBus RX pec rs=0 pec=0 valid=1
SMBus RX raw=36 00 65 proto=UBM_CONTROLLER_WRITE bus=I2C1
[SMBus I2C1] write done cmd=0x36
SMBus RX cmd=0x40 (UBM_DFC_STATUS_CONTROL_DESCRIPTOR) bus=I2C1
SMBus RX info raw=2 payload=1 proto=11
SMBus RX pec rs=1 pec=0 valid=1
SMBus RX raw=40 5B proto=UBM_CONTROLLER_READ bus=I2C1
SMBus TX cmd=0x40 (UBM_DFC_STATUS_CONTROL_DESCRIPTOR) proto=11 (UBM_CONTROLLER_READ) len=9 bus=I2C1 raw=01 10 00 00 00 01 00 00 49
SMBus RX cmd=0x36 (UBM_DFC_STATUS_CONTROL_DESCRIPTOR_INDEX) bus=I2C1
SMBus RX info raw=3 payload=2 proto=12
SMBus RX pec rs=0 pec=0 valid=1
SMBus RX raw=36 01 64 proto=UBM_CONTROLLER_WRITE bus=I2C1
[SMBus I2C1] write done cmd=0x36
SMBus RX cmd=0x40 (UBM_DFC_STATUS_CONTROL_DESCRIPTOR) bus=I2C1
SMBus RX info raw=2 payload=1 proto=11
SMBus RX pec rs=1 pec=0 valid=1
SMBus RX raw=40 5B proto=UBM_CONTROLLER_READ bus=I2C1
SMBus TX cmd=0x40 (UBM_DFC_STATUS_CONTROL_DESCRIPTOR) proto=11 (UBM_CONTROLLER_READ) len=9 bus=I2C1 raw=01 11 00 00 00 01 00 00 48
SMBus RX cmd=0x20 (UBM_ENTER_PROGRAMMABLE_UPDATE_MODE) bus=I2C1
SMBus RX info raw=2 payload=1 proto=11
SMBus RX pec rs=1 pec=0 valid=1
SMBus RX raw=20 7B proto=UBM_CONTROLLER_READ bus=I2C1
SMBus TX cmd=0x20 (UBM_ENTER_PROGRAMMABLE_UPDATE_MODE) proto=11 (UBM_CONTROLLER_READ) len=6 bus=I2C1 raw=B8 55 42 4D 00 BF
SMBus RX cmd=0x20 (UBM_ENTER_PROGRAMMABLE_UPDATE_MODE) bus=I2C1
SMBus RX info raw=7 payload=6 proto=12
SMBus RX pec rs=0 pec=0 valid=1
SMBus RX raw=20 B8 55 42 4D 01 DE proto=UBM_CONTROLLER_WRITE bus=I2C1
[SMBus I2C1] write done cmd=0x20
SMBus RX cmd=0x00 (UBM_OPERATIONAL_STATE) bus=I2C1
SMBus RX info raw=2 payload=1 proto=11
SMBus RX pec rs=1 pec=0 valid=1
SMBus RX raw=00 9B proto=UBM_CONTROLLER_READ bus=I2C1
SMBus TX cmd=0x00 (UBM_OPERATIONAL_STATE) proto=11 (UBM_CONTROLLER_READ) len=2 bus=I2C1 raw=04 57
SMBus RX cmd=0x21 (UBM_PROGRAMMABLE_MODE_DATA_TRANSFER) bus=I2C1
SMBus RX info raw=6 payload=5 proto=12
SMBus RX pec rs=0 pec=0 valid=1
SMBus RX raw=21 00 02 AA 55 79 proto=UBM_CONTROLLER_WRITE bus=I2C1
[SMBus I2C1] write done cmd=0x21
SMBus RX cmd=0x22 (UBM_EXIT_PROGRAMMABLE_UPDATE_MODE) bus=I2C1
SMBus RX info raw=2 payload=1 proto=11
SMBus RX pec rs=1 pec=0 valid=1
SMBus RX raw=22 79 proto=UBM_CONTROLLER_READ bus=I2C1
SMBus TX cmd=0x22 (UBM_EXIT_PROGRAMMABLE_UPDATE_MODE) proto=11 (UBM_CONTROLLER_READ) len=5 bus=I2C1 raw=55 42 4D 00 77
SMBus RX cmd=0x22 (UBM_EXIT_PROGRAMMABLE_UPDATE_MODE) bus=I2C1
SMBus RX info raw=6 payload=5 proto=12
SMBus RX pec rs=0 pec=0 valid=1
SMBus RX raw=22 55 42 4D 01 94 proto=UBM_CONTROLLER_WRITE bus=I2C1
[SMBus I2C1] write done cmd=0x22
SMBus RX cmd=0x00 (UBM_OPERATIONAL_STATE) bus=I2C1
SMBus RX info raw=2 payload=1 proto=11
SMBus RX pec rs=1 pec=0 valid=1
SMBus RX raw=00 9B proto=UBM_CONTROLLER_READ bus=I2C1
SMBus TX cmd=0x00 (UBM_OPERATIONAL_STATE) proto=11 (UBM_CONTROLLER_READ) len=2 bus=I2C1 raw=03 58
SMBus RX cmd=0x37 (UBM_CABLE_CONTIGUOUS_CHECK) bus=I2C1
SMBus RX info raw=3 payload=2 proto=12
SMBus RX pec rs=0 pec=0 valid=1
SMBus RX raw=37 00 64 proto=UBM_CONTROLLER_WRITE bus=I2C1
[SMBus I2C1] write done cmd=0x37
SMBus RX cmd=0x38 (UBM_CCC_RESULT_INDEX) bus=I2C1
SMBus RX info raw=3 payload=2 proto=12
SMBus RX pec rs=0 pec=0 valid=1
SMBus RX raw=38 00 63 proto=UBM_CONTROLLER_WRITE bus=I2C1
[SMBus I2C1] write done cmd=0x38
SMBus RX cmd=0x41 (UBM_CCC_RESULT_DESCRIPTOR) bus=I2C1
SMBus RX info raw=2 payload=1 proto=11
SMBus RX pec rs=1 pec=0 valid=1
SMBus RX raw=41 5A proto=UBM_CONTROLLER_READ bus=I2C1
SMBus TX cmd=0x41 (UBM_CCC_RESULT_DESCRIPTOR) proto=11 (UBM_CONTROLLER_READ) len=36 bus=I2C1 raw=A0 A1 A2 A3 A4 A5 A6 A7 A8 A9 AA AB AC AD AE AF B0 B1 B2 B3 B4 B5 B6 B7 B8 B9 BA BB BC BD BE BF C0 C1 C2 28
SMBus RX cmd=0x50 (UBM_FLEX_IO_DESCRIPTOR_INDEX) bus=I2C1
SMBus RX info raw=3 payload=2 proto=12
SMBus RX pec rs=0 pec=0 valid=1
SMBus RX raw=50 00 4B proto=UBM_CONTROLLER_WRITE bus=I2C1
[SMBus I2C1] write done cmd=0x50
SMBus RX cmd=0x51 (UBM_FLEX_IO_DESCRIPTOR) bus=I2C1
SMBus RX info raw=2 payload=1 proto=11
SMBus RX pec rs=1 pec=0 valid=1
SMBus RX raw=51 4A proto=UBM_CONTROLLER_READ bus=I2C1
SMBus TX cmd=0x51 (UBM_FLEX_IO_DESCRIPTOR) proto=11 (UBM_CONTROLLER_READ) len=6 bus=I2C1 raw=10 11 12 13 14 01
SMBus RX cmd=0x60 (UBM_POWER_EVENT_DATA) bus=I2C1
SMBus RX info raw=2 payload=1 proto=11
SMBus RX pec rs=1 pec=0 valid=1
SMBus RX raw=60 3B proto=UBM_CONTROLLER_READ bus=I2C1
SMBus TX cmd=0x60 (UBM_POWER_EVENT_DATA) proto=11 (UBM_CONTROLLER_READ) len=33 bus=I2C1 raw=60 61 62 63 64 65 66 67 68 69 6A 6B 6C 6D 6E 6F 70 71 72 73 74 75 76 77 78 79 7A 7B 7C 7D 7E 7F 6B
SMBus RX cmd=0x34 (UBM_FEATURES) bus=I2C1
SMBus RX info raw=4 payload=3 proto=12
SMBus RX pec rs=0 pec=0 valid=1
SMBus RX raw=34 00 00 98 proto=UBM_CONTROLLER_WRITE bus=I2C1
[SMBus I2C1] write done cmd=0x34
SMBus RX cmd=0x01 (UBM_LAST_COMMAND_STATUS) bus=I2C1
SMBus RX info raw=2 payload=1 proto=11
SMBus RX pec rs=1 pec=0 valid=1
SMBus RX raw=01 9A proto=UBM_CONTROLLER_READ bus=I2C1
SMBus TX cmd=0x01 (UBM_LAST_COMMAND_STATUS) proto=11 (UBM_CONTROLLER_READ) len=2 bus=I2C1 raw=02 59
SMBus RX cmd=0x00 (UBM_OPERATIONAL_STATE) bus=I2C1
SMBus RX info raw=2 payload=1 proto=11
SMBus RX pec rs=1 pec=0 valid=1
SMBus RX raw=00 9B proto=UBM_CONTROLLER_READ bus=I2C1
SMBus TX cmd=0x00 (UBM_OPERATIONAL_STATE) proto=11 (UBM_CONTROLLER_READ) len=2 bus=I2C1 raw=03 58
SMBus RX cmd=0x01 (UBM_LAST_COMMAND_STATUS) bus=I2C1
SMBus RX info raw=2 payload=1 proto=11
SMBus RX pec rs=1 pec=0 valid=1
SMBus RX raw=01 9A proto=UBM_CONTROLLER_READ bus=I2C1
SMBus TX cmd=0x01 (UBM_LAST_COMMAND_STATUS) proto=11 (UBM_CONTROLLER_READ) len=2 bus=I2C1 raw=02 59
SMBus RX cmd=0x02 (UBM_SILICON_IDENTITY_VERSION) bus=I2C1
SMBus RX info raw=2 payload=1 proto=11
SMBus RX pec rs=1 pec=0 valid=1
SMBus RX raw=02 99 proto=UBM_CONTROLLER_READ bus=I2C1
SMBus TX cmd=0x02 (UBM_SILICON_IDENTITY_VERSION) proto=11 (UBM_CONTROLLER_READ) len=15 bus=I2C1 raw=15 AB 10 00 32 00 00 00 00 00 00 01 55 42 C1
SMBus RX cmd=0x03 (UBM_PROGRAMMING_UPDATE_MODE_CAPABILITIES) bus=I2C1
SMBus RX info raw=2 payload=1 proto=11
SMBus RX pec rs=1 pec=0 valid=1
SMBus RX raw=03 98 proto=UBM_CONTROLLER_READ bus=I2C1
SMBus TX cmd=0x03 (UBM_PROGRAMMING_UPDATE_MODE_CAPABILITIES) proto=11 (UBM_CONTROLLER_READ) len=2 bus=I2C1 raw=01 5A
SMBus RX cmd=0x30 (UBM_HOST_FACING_CONNECTOR_INFO) bus=I2C1
SMBus RX info raw=2 payload=1 proto=11
SMBus RX pec rs=1 pec=0 valid=1
SMBus RX raw=30 6B proto=UBM_CONTROLLER_READ bus=I2C1
SMBus TX cmd=0x30 (UBM_HOST_FACING_CONNECTOR_INFO) proto=11 (UBM_CONTROLLER_READ) len=2 bus=I2C1 raw=01 5A
SMBus RX cmd=0x31 (UBM_BACKPLANE_INFO) bus=I2C1
SMBus RX info raw=2 payload=1 proto=11
SMBus RX pec rs=1 pec=0 valid=1
SMBus RX raw=31 6A proto=UBM_CONTROLLER_READ bus=I2C1
SMBus TX cmd=0x31 (UBM_BACKPLANE_INFO) proto=11 (UBM_CONTROLLER_READ) len=2 bus=I2C1 raw=01 5A
SMBus RX cmd=0x32 (UBM_STARTING_SLOT) bus=I2C1
SMBus RX info raw=2 payload=1 proto=11
SMBus RX pec rs=1 pec=0 valid=1
SMBus RX raw=32 69 proto=UBM_CONTROLLER_READ bus=I2C1
SMBus TX cmd=0x32 (UBM_STARTING_SLOT) proto=11 (UBM_CONTROLLER_READ) len=2 bus=I2C1 raw=00 5B
SMBus RX cmd=0x33 (UBM_CAPABILITIES) bus=I2C1
SMBus RX info raw=2 payload=1 proto=11
SMBus RX pec rs=1 pec=0 valid=1
SMBus RX raw=33 68 proto=UBM_CONTROLLER_READ bus=I2C1
SMBus TX cmd=0x33 (UBM_CAPABILITIES) proto=11 (UBM_CONTROLLER_READ) len=3 bus=I2C1 raw=80 60 7B
SMBus RX cmd=0x34 (UBM_FEATURES) bus=I2C1
SMBus RX info raw=2 payload=1 proto=11
SMBus RX pec rs=1 pec=0 valid=1
SMBus RX raw=34 67 proto=UBM_CONTROLLER_READ bus=I2C1
SMBus TX cmd=0x34 (UBM_FEATURES) proto=11 (UBM_CONTROLLER_READ) len=3 bus=I2C1 raw=00 00 5B
SMBus RX cmd=0x34 (UBM_FEATURES) bus=I2C1
SMBus RX info raw=4 payload=3 proto=12
SMBus RX pec rs=0 pec=0 valid=1
SMBus RX raw=34 00 00 67 proto=UBM_CONTROLLER_WRITE bus=I2C1
[SMBus I2C1] write done cmd=0x34
SMBus RX cmd=0x01 (UBM_LAST_COMMAND_STATUS) bus=I2C1
SMBus RX info raw=2 payload=1 proto=11
SMBus RX pec rs=1 pec=0 valid=1
SMBus RX raw=01 9A proto=UBM_CONTROLLER_READ bus=I2C1
SMBus TX cmd=0x01 (UBM_LAST_COMMAND_STATUS) proto=11 (UBM_CONTROLLER_READ) len=2 bus=I2C1 raw=01 5A
SMBus RX cmd=0x35 (UBM_CHANGE_COUNT) bus=I2C1
SMBus RX info raw=2 payload=1 proto=11
SMBus RX pec rs=1 pec=0 valid=1
SMBus RX raw=35 66 proto=UBM_CONTROLLER_READ bus=I2C1
SMBus TX cmd=0x35 (UBM_CHANGE_COUNT) proto=11 (UBM_CONTROLLER_READ) len=3 bus=I2C1 raw=01 00 5A
SMBus RX cmd=0x35 (UBM_CHANGE_COUNT) bus=I2C1
SMBus RX info raw=4 payload=3 proto=12
SMBus RX pec rs=0 pec=0 valid=1
SMBus RX raw=35 01 00 65 proto=UBM_CONTROLLER_WRITE bus=I2C1
[SMBus I2C1] write done cmd=0x35
SMBus RX cmd=0x01 (UBM_LAST_COMMAND_STATUS) bus=I2C1
SMBus RX info raw=2 payload=1 proto=11
SMBus RX pec rs=1 pec=0 valid=1
SMBus RX raw=01 9A proto=UBM_CONTROLLER_READ bus=I2C1
SMBus TX cmd=0x01 (UBM_LAST_COMMAND_STATUS) proto=11 (UBM_CONTROLLER_READ) len=2 bus=I2C1 raw=01 5A
SMBus RX cmd=0x36 (UBM_DFC_STATUS_CONTROL_DESCRIPTOR_INDEX) bus=I2C1
SMBus RX info raw=3 payload=2 proto=12
SMBus RX pec rs=0 pec=0 valid=1
SMBus RX raw=36 00 65 proto=UBM_CONTROLLER_WRITE bus=I2C1
[SMBus I2C1] write done cmd=0x36
SMBus RX cmd=0x40 (UBM_DFC_STATUS_CONTROL_DESCRIPTOR) bus=I2C1
SMBus RX info raw=2 payload=1 proto=11
SMBus RX pec rs=1 pec=0 valid=1
SMBus RX raw=40 5B proto=UBM_CONTROLLER_READ bus=I2C1
SMBus TX cmd=0x40 (UBM_DFC_STATUS_CONTROL_DESCRIPTOR) proto=11 (UBM_CONTROLLER_READ) len=9 bus=I2C1 raw=01 10 00 00 00 01 00 00 49
SMBus RX cmd=0x36 (UBM_DFC_STATUS_CONTROL_DESCRIPTOR_INDEX) bus=I2C1
SMBus RX info raw=3 payload=2 proto=12
SMBus RX pec rs=0 pec=0 valid=1
SMBus RX raw=36 01 64 proto=UBM_CONTROLLER_WRITE bus=I2C1
[SMBus I2C1] write done cmd=0x36
SMBus RX cmd=0x40 (UBM_DFC_STATUS_CONTROL_DESCRIPTOR) bus=I2C1
SMBus RX info raw=2 payload=1 proto=11
SMBus RX pec rs=1 pec=0 valid=1
SMBus RX raw=40 5B proto=UBM_CONTROLLER_READ bus=I2C1
SMBus TX cmd=0x40 (UBM_DFC_STATUS_CONTROL_DESCRIPTOR) proto=11 (UBM_CONTROLLER_READ) len=9 bus=I2C1 raw=01 11 00 00 00 01 00 00 48
SMBus RX cmd=0x20 (UBM_ENTER_PROGRAMMABLE_UPDATE_MODE) bus=I2C1
SMBus RX info raw=2 payload=1 proto=11
SMBus RX pec rs=1 pec=0 valid=1
SMBus RX raw=20 7B proto=UBM_CONTROLLER_READ bus=I2C1
SMBus TX cmd=0x20 (UBM_ENTER_PROGRAMMABLE_UPDATE_MODE) proto=11 (UBM_CONTROLLER_READ) len=6 bus=I2C1 raw=B8 55 42 4D 00 BF
SMBus RX cmd=0x20 (UBM_ENTER_PROGRAMMABLE_UPDATE_MODE) bus=I2C1
SMBus RX info raw=7 payload=6 proto=12
SMBus RX pec rs=0 pec=0 valid=1
SMBus RX raw=20 B8 55 42 4D 01 DE proto=UBM_CONTROLLER_WRITE bus=I2C1
SMBus TX cmd=0x00 (UBM_OPERATIONAL_STATE) proto=11 (UBM_CONTROLLER_READ) len=2 bus=I2C1 raw=04 57
[SMBus I2C1] write done cmd=0x20
SMBus RX cmd=0x00 (UBM_OPERATIONAL_STATE) bus=I2C1
SMBus RX info raw=2 payload=1 proto=11
SMBus RX pec rs=1 pec=0 valid=1
SMBus RX raw=00 9B proto=UBM_CONTROLLER_READ bus=I2C1
[SMBus I2C1] write done cmd=0x21
SMBus RX cmd=0x21 (UBM_PROGRAMMABLE_MODE_DATA_TRANSFER) bus=I2C1
SMBus RX info raw=6 payload=5 proto=12
SMBus RX pec rs=0 pec=0 valid=1
SMBus RX raw=21 00 02 AA 55 79 proto=UBM_CONTROLLER_WRITE bus=I2C1
SMBus RX cmd=0x22 (UBM_EXIT_PROGRAMMABLE_UPDATE_MODE) bus=I2C1
SMBus RX info raw=2 payload=1 proto=11
SMBus RX pec rs=1 pec=0 valid=1
SMBus RX raw=22 79 proto=UBM_CONTROLLER_READ bus=I2C1
SMBus TX cmd=0x22 (UBM_EXIT_PROGRAMMABLE_UPDATE_MODE) proto=11 (UBM_CONTROLLER_READ) len=5 bus=I2C1 raw=55 42 4D 00 77
SMBus RX cmd=0x22 (UBM_EXIT_PROGRAMMABLE_UPDATE_MODE) bus=I2C1
SMBus RX info raw=6 payload=5 proto=12
SMBus RX pec rs=0 pec=0 valid=1
SMBus RX raw=22 55 42 4D 01 94 proto=UBM_CONTROLLER_WRITE bus=I2C1
[SMBus I2C1] write done cmd=0x22
SMBus RX cmd=0x00 (UBM_OPERATIONAL_STATE) bus=I2C1
SMBus RX info raw=2 payload=1 proto=11
SMBus RX pec rs=1 pec=0 valid=1
SMBus RX raw=00 9B proto=UBM_CONTROLLER_READ bus=I2C1
SMBus TX cmd=0x00 (UBM_OPERATIONAL_STATE) proto=11 (UBM_CONTROLLER_READ) len=2 bus=I2C1 raw=03 58
SMBus RX cmd=0x37 (UBM_CABLE_CONTIGUOUS_CHECK) bus=I2C1
SMBus RX info raw=3 payload=2 proto=12
SMBus RX pec rs=0 pec=0 valid=1
SMBus RX raw=37 00 64 proto=UBM_CONTROLLER_WRITE bus=I2C1
[SMBus I2C1] write done cmd=0x37
SMBus RX cmd=0x38 (UBM_CCC_RESULT_INDEX) bus=I2C1
SMBus RX info raw=3 payload=2 proto=12
SMBus RX pec rs=0 pec=0 valid=1
SMBus RX raw=38 00 63 proto=UBM_CONTROLLER_WRITE bus=I2C1
[SMBus I2C1] write done cmd=0x38
SMBus RX cmd=0x41 (UBM_CCC_RESULT_DESCRIPTOR) bus=I2C1
SMBus RX info raw=2 payload=1 proto=11
SMBus RX pec rs=1 pec=0 valid=1
SMBus RX raw=41 5A proto=UBM_CONTROLLER_READ bus=I2C1
SMBus TX cmd=0x41 (UBM_CCC_RESULT_DESCRIPTOR) proto=11 (UBM_CONTROLLER_READ) len=36 bus=I2C1 raw=A0 A1 A2 A3 A4 A5 A6 A7 A8 A9 AA AB AC AD AE AF B0 B1 B2 B3 B4 B5 B6 B7 B8 B9 BA BB BC BD BE BF C0 C1 C2 28
SMBus RX cmd=0x50 (UBM_FLEX_IO_DESCRIPTOR_INDEX) bus=I2C1
SMBus RX info raw=3 payload=2 proto=12
SMBus RX pec rs=0 pec=0 valid=1
SMBus RX raw=50 00 4B proto=UBM_CONTROLLER_WRITE bus=I2C1
[SMBus I2C1] write done cmd=0x50
SMBus RX cmd=0x51 (UBM_FLEX_IO_DESCRIPTOR) bus=I2C1
SMBus RX info raw=2 payload=1 proto=11
SMBus RX pec rs=1 pec=0 valid=1
SMBus RX raw=51 4A proto=UBM_CONTROLLER_READ bus=I2C1
SMBus TX cmd=0x51 (UBM_FLEX_IO_DESCRIPTOR) proto=11 (UBM_CONTROLLER_READ) len=6 bus=I2C1 raw=10 11 12 13 14 01
SMBus RX cmd=0x60 (UBM_POWER_EVENT_DATA) bus=I2C1
SMBus RX info raw=2 payload=1 proto=11
SMBus RX pec rs=1 pec=0 valid=1
SMBus RX raw=60 3B proto=UBM_CONTROLLER_READ bus=I2C1
SMBus TX cmd=0x60 (UBM_POWER_EVENT_DATA) proto=11 (UBM_CONTROLLER_READ) len=33 bus=I2C1 raw=60 61 62 63 64 65 66 67 68 69 6A 6B 6C 6D 6E 6F 70 71 72 73 74 75 76 77 78 79 7A 7B 7C 7D 7E 7F 6B
SMBus RX cmd=0x34 (UBM_FEATURES) bus=I2C1
SMBus RX info raw=4 payload=3 proto=12
SMBus RX pec rs=0 pec=0 valid=1
SMBus RX raw=34 00 00 98 proto=UBM_CONTROLLER_WRITE bus=I2C1
[SMBus I2C1] write done cmd=0x34
SMBus RX cmd=0x01 (UBM_LAST_COMMAND_STATUS) bus=I2C1
SMBus RX info raw=2 payload=1 proto=11
SMBus RX pec rs=1 pec=0 valid=1
SMBus RX raw=01 9A proto=UBM_CONTROLLER_READ bus=I2C1
SMBus TX cmd=0x01 (UBM_LAST_COMMAND_STATUS) proto=11 (UBM_CONTROLLER_READ) len=2 bus=I2C1 raw=02 59
SMBus RX cmd=0x00 (UBM_OPERATIONAL_STATE) bus=USCI0
SMBus RX info raw=2 payload=1 proto=11
SMBus RX pec rs=1 pec=0 valid=1
SMBus RX raw=00 99 proto=UBM_CONTROLLER_READ bus=USCI0
SMBus TX cmd=0x00 (UBM_OPERATIONAL_STATE) proto=11 (UBM_CONTROLLER_READ) len=2 bus=USCI0 raw=03 58
SMBus RX cmd=0x01 (UBM_LAST_COMMAND_STATUS) bus=USCI0
SMBus RX info raw=2 payload=1 proto=11
SMBus RX pec rs=1 pec=0 valid=1
SMBus RX raw=01 98 proto=UBM_CONTROLLER_READ bus=USCI0
SMBus TX cmd=0x01 (UBM_LAST_COMMAND_STATUS) proto=11 (UBM_CONTROLLER_READ) len=2 bus=USCI0 raw=01 5A
SMBus RX cmd=0x02 (UBM_SILICON_IDENTITY_VERSION) bus=USCI0
SMBus RX info raw=2 payload=1 proto=11
SMBus RX pec rs=1 pec=0 valid=1
SMBus RX raw=02 97 proto=UBM_CONTROLLER_READ bus=USCI0
SMBus TX cmd=0x02 (UBM_SILICON_IDENTITY_VERSION) proto=11 (UBM_CONTROLLER_READ) len=15 bus=USCI0 raw=15 AB 10 00 32 00 00 00 00 00 00 01 55 42 C1
SMBus RX cmd=0x03 (UBM_PROGRAMMING_UPDATE_MODE_CAPABILITIES) bus=USCI0
SMBus RX info raw=2 payload=1 proto=11
SMBus RX pec rs=1 pec=0 valid=1
SMBus RX raw=03 96 proto=UBM_CONTROLLER_READ bus=USCI0
SMBus TX cmd=0x03 (UBM_PROGRAMMING_UPDATE_MODE_CAPABILITIES) proto=11 (UBM_CONTROLLER_READ) len=2 bus=USCI0 raw=01 5A
SMBus RX cmd=0x30 (UBM_HOST_FACING_CONNECTOR_INFO) bus=USCI0
SMBus RX info raw=2 payload=1 proto=11
SMBus RX pec rs=1 pec=0 valid=1
SMBus RX raw=30 69 proto=UBM_CONTROLLER_READ bus=USCI0
SMBus TX cmd=0x30 (UBM_HOST_FACING_CONNECTOR_INFO) proto=11 (UBM_CONTROLLER_READ) len=2 bus=USCI0 raw=01 5A
SMBus RX cmd=0x31 (UBM_BACKPLANE_INFO) bus=USCI0
SMBus RX info raw=2 payload=1 proto=11
SMBus RX pec rs=1 pec=0 valid=1
SMBus RX raw=31 68 proto=UBM_CONTROLLER_READ bus=USCI0
SMBus TX cmd=0x31 (UBM_BACKPLANE_INFO) proto=11 (UBM_CONTROLLER_READ) len=2 bus=USCI0 raw=01 5A
SMBus RX cmd=0x32 (UBM_STARTING_SLOT) bus=USCI0
SMBus RX info raw=2 payload=1 proto=11
SMBus RX pec rs=1 pec=0 valid=1
SMBus RX raw=32 67 proto=UBM_CONTROLLER_READ bus=USCI0
SMBus TX cmd=0x32 (UBM_STARTING_SLOT) proto=11 (UBM_CONTROLLER_READ) len=2 bus=USCI0 raw=00 5B
SMBus RX cmd=0x33 (UBM_CAPABILITIES) bus=USCI0
SMBus RX info raw=2 payload=1 proto=11
SMBus RX pec rs=1 pec=0 valid=1
SMBus RX raw=33 66 proto=UBM_CONTROLLER_READ bus=USCI0
SMBus TX cmd=0x33 (UBM_CAPABILITIES) proto=11 (UBM_CONTROLLER_READ) len=3 bus=USCI0 raw=80 60 7B
SMBus RX cmd=0x34 (UBM_FEATURES) bus=USCI0
SMBus RX info raw=2 payload=1 proto=11
SMBus RX pec rs=1 pec=0 valid=1
SMBus RX raw=34 65 proto=UBM_CONTROLLER_READ bus=USCI0
SMBus TX cmd=0x34 (UBM_FEATURES) proto=11 (UBM_CONTROLLER_READ) len=3 bus=USCI0 raw=00 00 5B
SMBus RX cmd=0x34 (UBM_FEATURES) bus=USCI0
SMBus RX info raw=4 payload=3 proto=12
SMBus RX pec rs=0 pec=0 valid=1
SMBus RX raw=34 00 00 65 proto=UBM_CONTROLLER_WRITE bus=USCI0
[SMBus USCI0] write done cmd=0x34
SMBus RX cmd=0x01 (UBM_LAST_COMMAND_STATUS) bus=USCI0
SMBus RX info raw=2 payload=1 proto=11
SMBus RX pec rs=1 pec=0 valid=1
SMBus RX raw=01 98 proto=UBM_CONTROLLER_READ bus=USCI0
SMBus TX cmd=0x01 (UBM_LAST_COMMAND_STATUS) proto=11 (UBM_CONTROLLER_READ) len=2 bus=USCI0 raw=01 5A
SMBus RX cmd=0x35 (UBM_CHANGE_COUNT) bus=USCI0
SMBus RX info raw=2 payload=1 proto=11
SMBus RX pec rs=1 pec=0 valid=1
SMBus RX raw=35 64 proto=UBM_CONTROLLER_READ bus=USCI0
SMBus TX cmd=0x35 (UBM_CHANGE_COUNT) proto=11 (UBM_CONTROLLER_READ) len=3 bus=USCI0 raw=01 00 5A
SMBus RX cmd=0x35 (UBM_CHANGE_COUNT) bus=USCI0
SMBus RX info raw=4 payload=3 proto=12
SMBus RX pec rs=0 pec=0 valid=1
SMBus RX raw=35 01 00 63 proto=UBM_CONTROLLER_WRITE bus=USCI0
[SMBus USCI0] write done cmd=0x35
SMBus RX cmd=0x01 (UBM_LAST_COMMAND_STATUS) bus=USCI0
SMBus RX info raw=2 payload=1 proto=11
SMBus RX pec rs=1 pec=0 valid=1
SMBus RX raw=01 98 proto=UBM_CONTROLLER_READ bus=USCI0
SMBus TX cmd=0x01 (UBM_LAST_COMMAND_STATUS) proto=11 (UBM_CONTROLLER_READ) len=2 bus=USCI0 raw=01 5A
SMBus RX cmd=0x36 (UBM_DFC_STATUS_CONTROL_DESCRIPTOR_INDEX) bus=USCI0
SMBus RX info raw=3 payload=2 proto=12
SMBus RX pec rs=0 pec=0 valid=1
SMBus RX raw=36 00 63 proto=UBM_CONTROLLER_WRITE bus=USCI0
[SMBus USCI0] write done cmd=0x36
SMBus RX cmd=0x40 (UBM_DFC_STATUS_CONTROL_DESCRIPTOR) bus=USCI0
SMBus RX info raw=2 payload=1 proto=11
SMBus RX pec rs=1 pec=0 valid=1
SMBus RX raw=40 59 proto=UBM_CONTROLLER_READ bus=USCI0
SMBus TX cmd=0x40 (UBM_DFC_STATUS_CONTROL_DESCRIPTOR) proto=11 (UBM_CONTROLLER_READ) len=9 bus=USCI0 raw=01 10 00 00 00 01 00 00 49
SMBus RX cmd=0x36 (UBM_DFC_STATUS_CONTROL_DESCRIPTOR_INDEX) bus=USCI0
SMBus RX info raw=3 payload=2 proto=12
SMBus RX pec rs=0 pec=0 valid=1
SMBus RX raw=36 01 62 proto=UBM_CONTROLLER_WRITE bus=USCI0
[SMBus USCI0] write done cmd=0x36
SMBus RX cmd=0x40 (UBM_DFC_STATUS_CONTROL_DESCRIPTOR) bus=USCI0
SMBus RX info raw=2 payload=1 proto=11
SMBus RX pec rs=1 pec=0 valid=1
SMBus RX raw=40 59 proto=UBM_CONTROLLER_READ bus=USCI0
SMBus TX cmd=0x40 (UBM_DFC_STATUS_CONTROL_DESCRIPTOR) proto=11 (UBM_CONTROLLER_READ) len=9 bus=USCI0 raw=01 11 00 00 00 01 00 00 48
SMBus RX cmd=0x20 (UBM_ENTER_PROGRAMMABLE_UPDATE_MODE) bus=USCI0
SMBus RX info raw=2 payload=1 proto=11
SMBus RX pec rs=1 pec=0 valid=1
SMBus RX raw=20 79 proto=UBM_CONTROLLER_READ bus=USCI0
SMBus TX cmd=0x20 (UBM_ENTER_PROGRAMMABLE_UPDATE_MODE) proto=11 (UBM_CONTROLLER_READ) len=6 bus=USCI0 raw=B8 55 42 4D 00 BF
SMBus RX cmd=0x20 (UBM_ENTER_PROGRAMMABLE_UPDATE_MODE) bus=USCI0
SMBus RX info raw=7 payload=6 proto=12
SMBus RX pec rs=0 pec=0 valid=1
SMBus RX raw=20 B8 55 42 4D 01 DC proto=UBM_CONTROLLER_WRITE bus=USCI0
[SMBus USCI0] write done cmd=0x20
SMBus RX cmd=0x00 (UBM_OPERATIONAL_STATE) bus=USCI0
SMBus RX info raw=2 payload=1 proto=11
SMBus RX pec rs=1 pec=0 valid=1
SMBus RX raw=00 99 proto=UBM_CONTROLLER_READ bus=USCI0
SMBus TX cmd=0x00 (UBM_OPERATIONAL_STATE) proto=11 (UBM_CONTROLLER_READ) len=2 bus=USCI0 raw=04 57
SMBus RX cmd=0x21 (UBM_PROGRAMMABLE_MODE_DATA_TRANSFER) bus=USCI0
SMBus RX info raw=6 payload=5 proto=12
SMBus RX pec rs=0 pec=0 valid=1
SMBus RX raw=21 00 02 AA 55 77 proto=UBM_CONTROLLER_WRITE bus=USCI0
[SMBus USCI0] write done cmd=0x21
SMBus RX cmd=0x22 (UBM_EXIT_PROGRAMMABLE_UPDATE_MODE) bus=USCI0
SMBus RX info raw=2 payload=1 proto=11
SMBus RX pec rs=1 pec=0 valid=1
SMBus RX raw=22 77 proto=UBM_CONTROLLER_READ bus=USCI0
SMBus TX cmd=0x22 (UBM_EXIT_PROGRAMMABLE_UPDATE_MODE) proto=11 (UBM_CONTROLLER_READ) len=5 bus=USCI0 raw=55 42 4D 00 77
SMBus RX cmd=0x22 (UBM_EXIT_PROGRAMMABLE_UPDATE_MODE) bus=USCI0
SMBus RX info raw=6 payload=5 proto=12
SMBus RX pec rs=0 pec=0 valid=1
SMBus RX raw=22 55 42 4D 01 92 proto=UBM_CONTROLLER_WRITE bus=USCI0
[SMBus USCI0] write done cmd=0x22
SMBus RX cmd=0x00 (UBM_OPERATIONAL_STATE) bus=USCI0
SMBus RX info raw=2 payload=1 proto=11
SMBus RX pec rs=1 pec=0 valid=1
SMBus RX raw=00 99 proto=UBM_CONTROLLER_READ bus=USCI0
SMBus TX cmd=0x00 (UBM_OPERATIONAL_STATE) proto=11 (UBM_CONTROLLER_READ) len=2 bus=USCI0 raw=03 58
SMBus RX cmd=0x37 (UBM_CABLE_CONTIGUOUS_CHECK) bus=USCI0
SMBus RX info raw=3 payload=2 proto=12
SMBus RX pec rs=0 pec=0 valid=1
SMBus RX raw=37 00 62 proto=UBM_CONTROLLER_WRITE bus=USCI0
[SMBus USCI0] write done cmd=0x37
SMBus RX cmd=0x38 (UBM_CCC_RESULT_INDEX) bus=USCI0
SMBus RX info raw=3 payload=2 proto=12
SMBus RX pec rs=0 pec=0 valid=1
SMBus RX raw=38 00 61 proto=UBM_CONTROLLER_WRITE bus=USCI0
[SMBus USCI0] write done cmd=0x38
SMBus RX cmd=0x41 (UBM_CCC_RESULT_DESCRIPTOR) bus=USCI0
SMBus RX info raw=2 payload=1 proto=11
SMBus RX pec rs=1 pec=0 valid=1
SMBus RX raw=41 58 proto=UBM_CONTROLLER_READ bus=USCI0
SMBus TX cmd=0x41 (UBM_CCC_RESULT_DESCRIPTOR) proto=11 (UBM_CONTROLLER_READ) len=36 bus=USCI0 raw=A0 A1 A2 A3 A4 A5 A6 A7 A8 A9 AA AB AC AD AE AF B0 B1 B2 B3 B4 B5 B6 B7 B8 B9 BA BB BC BD BE BF C0 C1 C2 28
SMBus RX cmd=0x50 (UBM_FLEX_IO_DESCRIPTOR_INDEX) bus=USCI0
SMBus RX info raw=3 payload=2 proto=12
SMBus RX pec rs=0 pec=0 valid=1
SMBus RX raw=50 00 49 proto=UBM_CONTROLLER_WRITE bus=USCI0
[SMBus USCI0] write done cmd=0x50
SMBus RX cmd=0x51 (UBM_FLEX_IO_DESCRIPTOR) bus=USCI0
SMBus RX info raw=2 payload=1 proto=11
SMBus RX pec rs=1 pec=0 valid=1
SMBus RX raw=51 48 proto=UBM_CONTROLLER_READ bus=USCI0
SMBus TX cmd=0x51 (UBM_FLEX_IO_DESCRIPTOR) proto=11 (UBM_CONTROLLER_READ) len=6 bus=USCI0 raw=10 11 12 13 14 01
SMBus RX cmd=0x60 (UBM_POWER_EVENT_DATA) bus=USCI0
SMBus RX info raw=2 payload=1 proto=11
SMBus RX pec rs=1 pec=0 valid=1
SMBus RX raw=60 39 proto=UBM_CONTROLLER_READ bus=USCI0
SMBus TX cmd=0x60 (UBM_POWER_EVENT_DATA) proto=11 (UBM_CONTROLLER_READ) len=33 bus=USCI0 raw=60 61 62 63 64 65 66 67 68 69 6A 6B 6C 6D 6E 6F 70 71 72 73 74 75 76 77 78 79 7A 7B 7C 7D 7E 7F 6B
SMBus RX cmd=0x34 (UBM_FEATURES) bus=USCI0
SMBus RX info raw=4 payload=3 proto=12
SMBus RX pec rs=0 pec=0 valid=1
SMBus RX raw=34 00 00 9A proto=UBM_CONTROLLER_WRITE bus=USCI0
[SMBus USCI0] write done cmd=0x34
SMBus RX cmd=0x01 (UBM_LAST_COMMAND_STATUS) bus=USCI0
SMBus RX info raw=2 payload=1 proto=11
SMBus RX pec rs=1 pec=0 valid=1
SMBus RX raw=01 98 proto=UBM_CONTROLLER_READ bus=USCI0
SMBus TX cmd=0x01 (UBM_LAST_COMMAND_STATUS) proto=11 (UBM_CONTROLLER_READ) len=2 bus=USCI0 raw=02 59
SMBus RX cmd=0x00 (UBM_OPERATIONAL_STATE) bus=USCI0
SMBus RX info raw=2 payload=1 proto=11
SMBus RX pec rs=1 pec=0 valid=1
SMBus RX raw=00 99 proto=UBM_CONTROLLER_READ bus=USCI0
SMBus TX cmd=0x00 (UBM_OPERATIONAL_STATE) proto=11 (UBM_CONTROLLER_READ) len=2 bus=USCI0 raw=03 58
SMBus RX cmd=0x01 (UBM_LAST_COMMAND_STATUS) bus=USCI0
SMBus RX info raw=2 payload=1 proto=11
SMBus RX pec rs=1 pec=0 valid=1
SMBus RX raw=01 98 proto=UBM_CONTROLLER_READ bus=USCI0
SMBus TX cmd=0x01 (UBM_LAST_COMMAND_STATUS) proto=11 (UBM_CONTROLLER_READ) len=2 bus=USCI0 raw=02 59
SMBus RX cmd=0x02 (UBM_SILICON_IDENTITY_VERSION) bus=USCI0
SMBus RX info raw=2 payload=1 proto=11
SMBus RX pec rs=1 pec=0 valid=1
SMBus RX raw=02 97 proto=UBM_CONTROLLER_READ bus=USCI0
SMBus TX cmd=0x02 (UBM_SILICON_IDENTITY_VERSION) proto=11 (UBM_CONTROLLER_READ) len=15 bus=USCI0 raw=15 AB 10 00 32 00 00 00 00 00 00 01 55 42 C1
SMBus RX cmd=0x03 (UBM_PROGRAMMING_UPDATE_MODE_CAPABILITIES) bus=USCI0
SMBus RX info raw=2 payload=1 proto=11
SMBus RX pec rs=1 pec=0 valid=1
SMBus RX raw=03 96 proto=UBM_CONTROLLER_READ bus=USCI0
SMBus TX cmd=0x03 (UBM_PROGRAMMING_UPDATE_MODE_CAPABILITIES) proto=11 (UBM_CONTROLLER_READ) len=2 bus=USCI0 raw=01 5A
SMBus RX cmd=0x30 (UBM_HOST_FACING_CONNECTOR_INFO) bus=USCI0
SMBus RX info raw=2 payload=1 proto=11
SMBus RX pec rs=1 pec=0 valid=1
SMBus RX raw=30 69 proto=UBM_CONTROLLER_READ bus=USCI0
SMBus TX cmd=0x30 (UBM_HOST_FACING_CONNECTOR_INFO) proto=11 (UBM_CONTROLLER_READ) len=2 bus=USCI0 raw=01 5A
SMBus RX cmd=0x31 (UBM_BACKPLANE_INFO) bus=USCI0
SMBus RX info raw=2 payload=1 proto=11
SMBus RX pec rs=1 pec=0 valid=1
SMBus RX raw=31 68 proto=UBM_CONTROLLER_READ bus=USCI0
SMBus TX cmd=0x31 (UBM_BACKPLANE_INFO) proto=11 (UBM_CONTROLLER_READ) len=2 bus=USCI0 raw=01 5A
SMBus RX cmd=0x32 (UBM_STARTING_SLOT) bus=USCI0
SMBus RX info raw=2 payload=1 proto=11
SMBus RX pec rs=1 pec=0 valid=1
SMBus RX raw=32 67 proto=UBM_CONTROLLER_READ bus=USCI0
SMBus TX cmd=0x32 (UBM_STARTING_SLOT) proto=11 (UBM_CONTROLLER_READ) len=2 bus=USCI0 raw=00 5B
SMBus RX cmd=0x33 (UBM_CAPABILITIES) bus=USCI0
SMBus RX info raw=2 payload=1 proto=11
SMBus RX pec rs=1 pec=0 valid=1
SMBus RX raw=33 66 proto=UBM_CONTROLLER_READ bus=USCI0
SMBus TX cmd=0x33 (UBM_CAPABILITIES) proto=11 (UBM_CONTROLLER_READ) len=3 bus=USCI0 raw=80 60 7B
SMBus RX cmd=0x34 (UBM_FEATURES) bus=USCI0
SMBus RX info raw=2 payload=1 proto=11
SMBus RX pec rs=1 pec=0 valid=1
SMBus RX raw=34 65 proto=UBM_CONTROLLER_READ bus=USCI0
SMBus TX cmd=0x34 (UBM_FEATURES) proto=11 (UBM_CONTROLLER_READ) len=3 bus=USCI0 raw=00 00 5B
[SMBus USCI0] write done cmd=0x34
SMBus RX cmd=0x34 (UBM_FEATURES) bus=USCI0
SMBus RX info raw=4 payload=3 proto=12
SMBus RX pec rs=0 pec=0 valid=1
SMBus RX raw=34 00 00 65 proto=UBM_CONTROLLER_WRITE bus=USCI0
SMBus TX cmd=0x01 (UBM_LAST_COMMAND_STATUS) proto=11 (UBM_CONTROLLER_READ) len=2 bus=USCI0 raw=01 5A
SMBus RX cmd=0x01 (UBM_LAST_COMMAND_STATUS) bus=USCI0
SMBus RX info raw=2 payload=1 proto=11
SMBus RX pec rs=1 pec=0 valid=1
SMBus RX raw=01 98 proto=UBM_CONTROLLER_READ bus=USCI0
SMBus TX cmd=0x35 (UBM_CHANGE_COUNT) proto=11 (UBM_CONTROLLER_READ) len=3 bus=USCI0 raw=01 00 5A
SMBus RX cmd=0x35 (UBM_CHANGE_COUNT) bus=USCI0
SMBus RX info raw=2 payload=1 proto=11
SMBus RX pec rs=1 pec=0 valid=1
SMBus RX raw=35 64 proto=UBM_CONTROLLER_READ bus=USCI0
[SMBus USCI0] write done cmd=0x35
SMBus RX cmd=0x35 (UBM_CHANGE_COUNT) bus=USCI0
SMBus RX info raw=4 payload=3 proto=12
SMBus RX pec rs=0 pec=0 valid=1
SMBus RX raw=35 01 00 63 proto=UBM_CONTROLLER_WRITE bus=USCI0
SMBus TX cmd=0x01 (UBM_LAST_COMMAND_STATUS) proto=11 (UBM_CONTROLLER_READ) len=2 bus=USCI0 raw=01 5A
SMBus RX cmd=0x01 (UBM_LAST_COMMAND_STATUS) bus=USCI0
SMBus RX info raw=2 payload=1 proto=11
SMBus RX pec rs=1 pec=0 valid=1
SMBus RX raw=01 98 proto=UBM_CONTROLLER_READ bus=USCI0
[SMBus USCI0] write done cmd=0x36
SMBus RX cmd=0x36 (UBM_DFC_STATUS_CONTROL_DESCRIPTOR_INDEX) bus=USCI0
SMBus RX info raw=3 payload=2 proto=12
SMBus RX pec rs=0 pec=0 valid=1
SMBus RX raw=36 00 63 proto=UBM_CONTROLLER_WRITE bus=USCI0
SMBus TX cmd=0x40 (UBM_DFC_STATUS_CONTROL_DESCRIPTOR) proto=11 (UBM_CONTROLLER_READ) len=9 bus=USCI0 raw=01 10 00 00 00 01 00 00 49
SMBus RX cmd=0x40 (UBM_DFC_STATUS_CONTROL_DESCRIPTOR) bus=USCI0
SMBus RX info raw=2 payload=1 proto=11
SMBus RX pec rs=1 pec=0 valid=1
SMBus RX raw=40 59 proto=UBM_CONTROLLER_READ bus=USCI0
[SMBus USCI0] write done cmd=0x36
SMBus RX cmd=0x36 (UBM_DFC_STATUS_CONTROL_DESCRIPTOR_INDEX) bus=USCI0
SMBus RX info raw=3 payload=2 proto=12
SMBus RX pec rs=0 pec=0 valid=1
SMBus RX raw=36 01 62 proto=UBM_CONTROLLER_WRITE bus=USCI0
SMBus TX cmd=0x40 (UBM_DFC_STATUS_CONTROL_DESCRIPTOR) proto=11 (UBM_CONTROLLER_READ) len=9 bus=USCI0 raw=01 11 00 00 00 01 00 00 48
SMBus RX cmd=0x40 (UBM_DFC_STATUS_CONTROL_DESCRIPTOR) bus=USCI0
SMBus RX info raw=2 payload=1 proto=11
SMBus RX pec rs=1 pec=0 valid=1
SMBus RX raw=40 59 proto=UBM_CONTROLLER_READ bus=USCI0
SMBus TX cmd=0x20 (UBM_ENTER_PROGRAMMABLE_UPDATE_MODE) proto=11 (UBM_CONTROLLER_READ) len=6 bus=USCI0 raw=B8 55 42 4D 00 BF
SMBus RX cmd=0x20 (UBM_ENTER_PROGRAMMABLE_UPDATE_MODE) bus=USCI0
SMBus RX info raw=2 payload=1 proto=11
SMBus RX pec rs=1 pec=0 valid=1
SMBus RX raw=20 79 proto=UBM_CONTROLLER_READ bus=USCI0
[SMBus USCI0] write done cmd=0x20
SMBus RX cmd=0x20 (UBM_ENTER_PROGRAMMABLE_UPDATE_MODE) bus=USCI0
SMBus RX info raw=7 payload=6 proto=12
SMBus RX pec rs=0 pec=0 valid=1
SMBus RX raw=20 B8 55 42 4D 01 DC proto=UBM_CONTROLLER_WRITE bus=USCI0
SMBus TX cmd=0x00 (UBM_OPERATIONAL_STATE) proto=11 (UBM_CONTROLLER_READ) len=2 bus=USCI0 raw=04 57
SMBus RX cmd=0x00 (UBM_OPERATIONAL_STATE) bus=USCI0
SMBus RX info raw=2 payload=1 proto=11
SMBus RX pec rs=1 pec=0 valid=1
SMBus RX raw=00 99 proto=UBM_CONTROLLER_READ bus=USCI0
[SMBus USCI0] write done cmd=0x21
SMBus RX cmd=0x21 (UBM_PROGRAMMABLE_MODE_DATA_TRANSFER) bus=USCI0
SMBus RX info raw=6 payload=5 proto=12
SMBus RX pec rs=0 pec=0 valid=1
SMBus RX raw=21 00 02 AA 55 77 proto=UBM_CONTROLLER_WRITE bus=USCI0
SMBus TX cmd=0x22 (UBM_EXIT_PROGRAMMABLE_UPDATE_MODE) proto=11 (UBM_CONTROLLER_READ) len=5 bus=USCI0 raw=55 42 4D 00 77
SMBus RX cmd=0x22 (UBM_EXIT_PROGRAMMABLE_UPDATE_MODE) bus=USCI0
SMBus RX info raw=2 payload=1 proto=11
SMBus RX pec rs=1 pec=0 valid=1
SMBus RX raw=22 77 proto=UBM_CONTROLLER_READ bus=USCI0
[SMBus USCI0] write done cmd=0x22
SMBus RX cmd=0x22 (UBM_EXIT_PROGRAMMABLE_UPDATE_MODE) bus=USCI0
SMBus RX info raw=6 payload=5 proto=12
SMBus RX pec rs=0 pec=0 valid=1
SMBus RX raw=22 55 42 4D 01 92 proto=UBM_CONTROLLER_WRITE bus=USCI0
SMBus TX cmd=0x00 (UBM_OPERATIONAL_STATE) proto=11 (UBM_CONTROLLER_READ) len=2 bus=USCI0 raw=03 58
SMBus RX cmd=0x00 (UBM_OPERATIONAL_STATE) bus=USCI0
SMBus RX info raw=2 payload=1 proto=11
SMBus RX pec rs=1 pec=0 valid=1
SMBus RX raw=00 99 proto=UBM_CONTROLLER_READ bus=USCI0
[SMBus USCI0] write done cmd=0x37
SMBus RX cmd=0x37 (UBM_CABLE_CONTIGUOUS_CHECK) bus=USCI0
SMBus RX info raw=3 payload=2 proto=12
SMBus RX pec rs=0 pec=0 valid=1
SMBus RX raw=37 00 62 proto=UBM_CONTROLLER_WRITE bus=USCI0
[SMBus USCI0] write done cmd=0x38
SMBus RX cmd=0x38 (UBM_CCC_RESULT_INDEX) bus=USCI0
SMBus RX info raw=3 payload=2 proto=12
SMBus RX pec rs=0 pec=0 valid=1
SMBus RX raw=38 00 61 proto=UBM_CONTROLLER_WRITE bus=USCI0
SMBus TX cmd=0x41 (UBM_CCC_RESULT_DESCRIPTOR) proto=11 (UBM_CONTROLLER_READ) len=36 bus=USCI0 raw=A0 A1 A2 A3 A4 A5 A6 A7 A8 A9 AA AB AC AD AE AF B0 B1 B2 B3 B4 B5 B6 B7 B8 B9 BA BB BC BD BE BF C0 C1 C2 28
SMBus RX cmd=0x41 (UBM_CCC_RESULT_DESCRIPTOR) bus=USCI0
SMBus RX info raw=2 payload=1 proto=11
SMBus RX pec rs=1 pec=0 valid=1
SMBus RX raw=41 58 proto=UBM_CONTROLLER_READ bus=USCI0
[SMBus USCI0] write done cmd=0x50
SMBus RX cmd=0x50 (UBM_FLEX_IO_DESCRIPTOR_INDEX) bus=USCI0
SMBus RX info raw=3 payload=2 proto=12
SMBus RX pec rs=0 pec=0 valid=1
SMBus RX raw=50 00 49 proto=UBM_CONTROLLER_WRITE bus=USCI0
SMBus TX cmd=0x51 (UBM_FLEX_IO_DESCRIPTOR) proto=11 (UBM_CONTROLLER_READ) len=6 bus=USCI0 raw=10 11 12 13 14 01
SMBus RX cmd=0x51 (UBM_FLEX_IO_DESCRIPTOR) bus=USCI0
SMBus RX info raw=2 payload=1 proto=11
SMBus RX pec rs=1 pec=0 valid=1
SMBus RX raw=51 48 proto=UBM_CONTROLLER_READ bus=USCI0
SMBus TX cmd=0x60 (UBM_POWER_EVENT_DATA) proto=11 (UBM_CONTROLLER_READ) len=33 bus=USCI0 raw=60 61 62 63 64 65 66 67 68 69 6A 6B 6C 6D 6E 6F 70 71 72 73 74 75 76 77 78 79 7A 7B 7C 7D 7E 7F 6B
SMBus RX cmd=0x60 (UBM_POWER_EVENT_DATA) bus=USCI0
SMBus RX info raw=2 payload=1 proto=11
SMBus RX pec rs=1 pec=0 valid=1
SMBus RX raw=60 39 proto=UBM_CONTROLLER_READ bus=USCI0
[SMBus USCI0] write done cmd=0x34
SMBus RX cmd=0x34 (UBM_FEATURES) bus=USCI0
SMBus RX info raw=4 payload=3 proto=12
SMBus RX pec rs=0 pec=0 valid=1
SMBus RX raw=34 00 00 9A proto=UBM_CONTROLLER_WRITE bus=USCI0
SMBus TX cmd=0x01 (UBM_LAST_COMMAND_STATUS) proto=11 (UBM_CONTROLLER_READ) len=2 bus=USCI0 raw=02 59
SMBus RX cmd=0x01 (UBM_LAST_COMMAND_STATUS) bus=USCI0
SMBus RX info raw=2 payload=1 proto=11
SMBus RX pec rs=1 pec=0 valid=1
SMBus RX raw=01 98 proto=UBM_CONTROLLER_READ bus=USCI0
SMBus RX cmd=0x00 (UBM_OPERATIONAL_STATE) bus=USCI0
SMBus RX info raw=2 payload=1 proto=11
SMBus RX pec rs=1 pec=0 valid=1
SMBus RX raw=00 99 proto=UBM_CONTROLLER_READ bus=USCI0
SMBus TX cmd=0x00 (UBM_OPERATIONAL_STATE) proto=11 (UBM_CONTROLLER_READ) len=2 bus=USCI0 raw=03 58
SMBus RX cmd=0x01 (UBM_LAST_COMMAND_STATUS) bus=USCI0
SMBus RX info raw=2 payload=1 proto=11
SMBus RX pec rs=1 pec=0 valid=1
SMBus RX raw=01 98 proto=UBM_CONTROLLER_READ bus=USCI0
SMBus TX cmd=0x01 (UBM_LAST_COMMAND_STATUS) proto=11 (UBM_CONTROLLER_READ) len=2 bus=USCI0 raw=02 59
SMBus RX cmd=0x02 (UBM_SILICON_IDENTITY_VERSION) bus=USCI0
SMBus RX info raw=2 payload=1 proto=11
SMBus RX pec rs=1 pec=0 valid=1
SMBus RX raw=02 97 proto=UBM_CONTROLLER_READ bus=USCI0
SMBus TX cmd=0x02 (UBM_SILICON_IDENTITY_VERSION) proto=11 (UBM_CONTROLLER_READ) len=15 bus=USCI0 raw=15 AB 10 00 32 00 00 00 00 00 00 01 55 42 C1
SMBus RX cmd=0x03 (UBM_PROGRAMMING_UPDATE_MODE_CAPABILITIES) bus=USCI0
SMBus RX info raw=2 payload=1 proto=11
SMBus RX pec rs=1 pec=0 valid=1
SMBus RX raw=03 96 proto=UBM_CONTROLLER_READ bus=USCI0
SMBus TX cmd=0x03 (UBM_PROGRAMMING_UPDATE_MODE_CAPABILITIES) proto=11 (UBM_CONTROLLER_READ) len=2 bus=USCI0 raw=01 5A
SMBus RX cmd=0x30 (UBM_HOST_FACING_CONNECTOR_INFO) bus=USCI0
SMBus RX info raw=2 payload=1 proto=11
SMBus RX pec rs=1 pec=0 valid=1
SMBus RX raw=30 69 proto=UBM_CONTROLLER_READ bus=USCI0
SMBus TX cmd=0x30 (UBM_HOST_FACING_CONNECTOR_INFO) proto=11 (UBM_CONTROLLER_READ) len=2 bus=USCI0 raw=01 5A
SMBus RX cmd=0x31 (UBM_BACKPLANE_INFO) bus=USCI0
SMBus RX info raw=2 payload=1 proto=11
SMBus RX pec rs=1 pec=0 valid=1
SMBus RX raw=31 68 proto=UBM_CONTROLLER_READ bus=USCI0
SMBus TX cmd=0x31 (UBM_BACKPLANE_INFO) proto=11 (UBM_CONTROLLER_READ) len=2 bus=USCI0 raw=01 5A
SMBus RX cmd=0x32 (UBM_STARTING_SLOT) bus=USCI0
SMBus RX info raw=2 payload=1 proto=11
SMBus RX pec rs=1 pec=0 valid=1
SMBus RX raw=32 67 proto=UBM_CONTROLLER_READ bus=USCI0
SMBus TX cmd=0x32 (UBM_STARTING_SLOT) proto=11 (UBM_CONTROLLER_READ) len=2 bus=USCI0 raw=00 5B
SMBus RX cmd=0x33 (UBM_CAPABILITIES) bus=USCI0
SMBus RX info raw=2 payload=1 proto=11
SMBus RX pec rs=1 pec=0 valid=1
SMBus RX raw=33 66 proto=UBM_CONTROLLER_READ bus=USCI0
SMBus TX cmd=0x33 (UBM_CAPABILITIES) proto=11 (UBM_CONTROLLER_READ) len=3 bus=USCI0 raw=80 60 7B
SMBus RX cmd=0x34 (UBM_FEATURES) bus=USCI0
SMBus RX info raw=2 payload=1 proto=11
SMBus RX pec rs=1 pec=0 valid=1
SMBus RX raw=34 65 proto=UBM_CONTROLLER_READ bus=USCI0
SMBus TX cmd=0x34 (UBM_FEATURES) proto=11 (UBM_CONTROLLER_READ) len=3 bus=USCI0 raw=00 00 5B
[SMBus USCI0] write done cmd=0x34
SMBus RX cmd=0x34 (UBM_FEATURES) bus=USCI0
SMBus RX info raw=4 payload=3 proto=12
SMBus RX pec rs=0 pec=0 valid=1
SMBus RX raw=34 00 00 65 proto=UBM_CONTROLLER_WRITE bus=USCI0
SMBus TX cmd=0x01 (UBM_LAST_COMMAND_STATUS) proto=11 (UBM_CONTROLLER_READ) len=2 bus=USCI0 raw=01 5A
SMBus RX cmd=0x01 (UBM_LAST_COMMAND_STATUS) bus=USCI0
SMBus RX info raw=2 payload=1 proto=11
SMBus RX pec rs=1 pec=0 valid=1
SMBus RX raw=01 98 proto=UBM_CONTROLLER_READ bus=USCI0
SMBus TX cmd=0x35 (UBM_CHANGE_COUNT) proto=11 (UBM_CONTROLLER_READ) len=3 bus=USCI0 raw=01 00 5A
SMBus RX cmd=0x35 (UBM_CHANGE_COUNT) bus=USCI0
SMBus RX info raw=2 payload=1 proto=11
SMBus RX pec rs=1 pec=0 valid=1
SMBus RX raw=35 64 proto=UBM_CONTROLLER_READ bus=USCI0
SMBus TX cmd=0x01 (UBM_LAST_COMMAND_STATUS) proto=11 (UBM_CONTROLLER_READ) len=2 bus=USCI0 raw=01 5A
[SMBus USCI0] write done cmd=0x35
SMBus RX cmd=0x35 (UBM_CHANGE_COUNT) bus=USCI0
SMBus RX info raw=4 payload=3 proto=12
SMBus RX pec rs=0 pec=0 valid=1
SMBus RX raw=35 01 00 63 proto=UBM_CONTROLLER_WRITE bus=USCI0
[SMBus USCI0] write done cmd=0x36
SMBus RX cmd=0x01 (UBM_LAST_COMMAND_STATUS) bus=USCI0
SMBus RX info raw=2 payload=1 proto=11
SMBus RX pec rs=1 pec=0 valid=1
SMBus RX raw=01 98 proto=UBM_CONTROLLER_READ bus=USCI0
SMBus RX cmd=0x36 (UBM_DFC_STATUS_CONTROL_DESCRIPTOR_INDEX) bus=USCI0
SMBus RX info raw=3 payload=2 proto=12
SMBus RX pec rs=0 pec=0 valid=1
SMBus RX raw=36 00 63 proto=UBM_CONTROLLER_WRITE bus=USCI0
SMBus TX cmd=0x40 (UBM_DFC_STATUS_CONTROL_DESCRIPTOR) proto=11 (UBM_CONTROLLER_READ) len=9 bus=USCI0 raw=01 10 00 00 00 01 00 00 49
SMBus RX cmd=0x40 (UBM_DFC_STATUS_CONTROL_DESCRIPTOR) bus=USCI0
SMBus RX info raw=2 payload=1 proto=11
SMBus RX pec rs=1 pec=0 valid=1
SMBus RX raw=40 59 proto=UBM_CONTROLLER_READ bus=USCI0
[SMBus USCI0] write done cmd=0x36
SMBus RX cmd=0x36 (UBM_DFC_STATUS_CONTROL_DESCRIPTOR_INDEX) bus=USCI0
SMBus RX info raw=3 payload=2 proto=12
SMBus RX pec rs=0 pec=0 valid=1
SMBus RX raw=36 01 62 proto=UBM_CONTROLLER_WRITE bus=USCI0
SMBus TX cmd=0x40 (UBM_DFC_STATUS_CONTROL_DESCRIPTOR) proto=11 (UBM_CONTROLLER_READ) len=9 bus=USCI0 raw=01 11 00 00 00 01 00 00 48
SMBus RX cmd=0x40 (UBM_DFC_STATUS_CONTROL_DESCRIPTOR) bus=USCI0
SMBus RX info raw=2 payload=1 proto=11
SMBus RX pec rs=1 pec=0 valid=1
SMBus RX raw=40 59 proto=UBM_CONTROLLER_READ bus=USCI0
SMBus TX cmd=0x20 (UBM_ENTER_PROGRAMMABLE_UPDATE_MODE) proto=11 (UBM_CONTROLLER_READ) len=6 bus=USCI0 raw=B8 55 42 4D 00 BF
[SMBus USCI0] write done cmd=0x20
SMBus RX cmd=0x20 (UBM_ENTER_PROGRAMMABLE_UPDATE_MODE) bus=USCI0
SMBus RX info raw=2 payload=1 proto=11
SMBus RX pec rs=1 pec=0 valid=1
SMBus RX raw=20 79 proto=UBM_CONTROLLER_READ bus=USCI0
SMBus TX cmd=0x00 (UBM_OPERATIONAL_STATE) proto=11 (UBM_CONTROLLER_READ) len=2 bus=USCI0 raw=04 57
SMBus RX cmd=0x20 (UBM_ENTER_PROGRAMMABLE_UPDATE_MODE) bus=USCI0
SMBus RX info raw=7 payload=6 proto=12
SMBus RX pec rs=0 pec=0 valid=1
SMBus RX raw=20 B8 55 42 4D 01 DC proto=UBM_CONTROLLER_WRITE bus=USCI0
[SMBus USCI0] write done cmd=0x21
SMBus RX cmd=0x00 (UBM_OPERATIONAL_STATE) bus=USCI0
SMBus RX info raw=2 payload=1 proto=11
SMBus RX pec rs=1 pec=0 valid=1
SMBus RX raw=00 99 proto=UBM_CONTROLLER_READ bus=USCI0
SMBus TX cmd=0x22 (UBM_EXIT_PROGRAMMABLE_UPDATE_MODE) proto=11 (UBM_CONTROLLER_READ) len=5 bus=USCI0 raw=55 42 4D 00 77
SMBus RX cmd=0x21 (UBM_PROGRAMMABLE_MODE_DATA_TRANSFER) bus=USCI0
SMBus RX info raw=6 payload=5 proto=12
SMBus RX pec rs=0 pec=0 valid=1
SMBus RX raw=21 00 02 AA 55 77 proto=UBM_CONTROLLER_WRITE bus=USCI0
[SMBus USCI0] write done cmd=0x22
SMBus RX cmd=0x22 (UBM_EXIT_PROGRAMMABLE_UPDATE_MODE) bus=USCI0
SMBus RX info raw=2 payload=1 proto=11
SMBus RX pec rs=1 pec=0 valid=1
SMBus RX raw=22 77 proto=UBM_CONTROLLER_READ bus=USCI0
SMBus TX cmd=0x00 (UBM_OPERATIONAL_STATE) proto=11 (UBM_CONTROLLER_READ) len=2 bus=USCI0 raw=03 58
SMBus RX cmd=0x22 (UBM_EXIT_PROGRAMMABLE_UPDATE_MODE) bus=USCI0
SMBus RX info raw=6 payload=5 proto=12
SMBus RX pec rs=0 pec=0 valid=1
SMBus RX raw=22 55 42 4D 01 92 proto=UBM_CONTROLLER_WRITE bus=USCI0
[SMBus USCI0] write done cmd=0x37
SMBus RX cmd=0x00 (UBM_OPERATIONAL_STATE) bus=USCI0
SMBus RX info raw=2 payload=1 proto=11
SMBus RX pec rs=1 pec=0 valid=1
SMBus RX raw=00 99 proto=UBM_CONTROLLER_READ bus=USCI0
[SMBus USCI0] write done cmd=0x38
SMBus RX cmd=0x37 (UBM_CABLE_CONTIGUOUS_CHECK) bus=USCI0
SMBus RX info raw=3 payload=2 proto=12
SMBus RX pec rs=0 pec=0 valid=1
SMBus RX raw=37 00 62 proto=UBM_CONTROLLER_WRITE bus=USCI0
SMBus RX cmd=0x38 (UBM_CCC_RESULT_INDEX) bus=USCI0
SMBus RX info raw=3 payload=2 proto=12
SMBus RX pec rs=0 pec=0 valid=1
SMBus RX raw=38 00 61 proto=UBM_CONTROLLER_WRITE bus=USCI0
SMBus TX cmd=0x41 (UBM_CCC_RESULT_DESCRIPTOR) proto=11 (UBM_CONTROLLER_READ) len=36 bus=USCI0 raw=A0 A1 A2 A3 A4 A5 A6 A7 A8 A9 AA AB AC AD AE AF B0 B1 B2 B3 B4 B5 B6 B7 B8 B9 BA BB BC BD BE BF C0 C1 C2 28
SMBus RX cmd=0x41 (UBM_CCC_RESULT_DESCRIPTOR) bus=USCI0
SMBus RX info raw=2 payload=1 proto=11
SMBus RX pec rs=1 pec=0 valid=1
SMBus RX raw=41 58 proto=UBM_CONTROLLER_READ bus=USCI0
[SMBus USCI0] write done cmd=0x50
SMBus RX cmd=0x50 (UBM_FLEX_IO_DESCRIPTOR_INDEX) bus=USCI0
SMBus RX info raw=3 payload=2 proto=12
SMBus RX pec rs=0 pec=0 valid=1
SMBus RX raw=50 00 49 proto=UBM_CONTROLLER_WRITE bus=USCI0
SMBus TX cmd=0x51 (UBM_FLEX_IO_DESCRIPTOR) proto=11 (UBM_CONTROLLER_READ) len=6 bus=USCI0 raw=10 11 12 13 14 01
SMBus RX cmd=0x51 (UBM_FLEX_IO_DESCRIPTOR) bus=USCI0
SMBus RX info raw=2 payload=1 proto=11
SMBus RX pec rs=1 pec=0 valid=1
SMBus RX raw=51 48 proto=UBM_CONTROLLER_READ bus=USCI0
SMBus TX cmd=0x60 (UBM_POWER_EVENT_DATA) proto=11 (UBM_CONTROLLER_READ) len=33 bus=USCI0 raw=60 61 62 63 64 65 66 67 68 69 6A 6B 6C 6D 6E 6F 70 71 72 73 74 75 76 77 78 79 7A 7B 7C 7D 7E 7F 6B
SMBus RX cmd=0x60 (UBM_POWER_EVENT_DATA) bus=USCI0
SMBus RX info raw=2 payload=1 proto=11
SMBus RX pec rs=1 pec=0 valid=1
SMBus RX raw=60 39 proto=UBM_CONTROLLER_READ bus=USCI0
SMBus TX cmd=0x01 (UBM_LAST_COMMAND_STATUS) proto=11 (UBM_CONTROLLER_READ) len=2 bus=USCI0 raw=02 59
[SMBus USCI0] write done cmd=0x34
SMBus RX cmd=0x34 (UBM_FEATURES) bus=USCI0
SMBus RX info raw=4 payload=3 proto=12
SMBus RX pec rs=0 pec=0 valid=1
SMBus RX raw=34 00 00 9A proto=UBM_CONTROLLER_WRITE bus=USCI0
SMBus RX cmd=0x01 (UBM_LAST_COMMAND_STATUS) bus=USCI0
SMBus RX info raw=2 payload=1 proto=11
SMBus RX pec rs=1 pec=0 valid=1
SMBus RX raw=01 98 proto=UBM_CONTROLLER_READ bus=USCI0
