
CLK_GetCPUFreq : 48000000
CLK_GetHCLKFreq : 48000000
CLK_GetHXTFreq :        0
CLK_GetLXTFreq :        0
CLK_GetPCLK0Freq : 48000000
CLK_GetPCLK1Freq : 48000000
Reset Source <0x00000041>
0)POR Reset Flag
6)Reserved.
power on from POR
task1 id = 0
task2 id = 1
task3 id = 2
BP_TYPE(PF14)=1 -> 2 Wire SMBus slave profile
ADC VDD=2973 mV bandgap_raw=1653 bandgap_trim=4095 low<=892 mV high>=2081 mV
ADC0_CH11 addr select raw=0 mv=0 level=LOW
SMBus address matrix: I2C1 addr7=0x60 write=0xC0 read=0xC1, USCI0 addr7=0x61 write=0xC2 read=0xC3
ADC0_CH12 SMBus role raw=2 mv=1 level=LOW
SMBus role matrix: UBM
ADC0_CH13 user option raw=0 mv=0 level=LOW
User option CH13: ON
ADC0_CH14 SGPIO group raw=4092 mv=2971 level=HIGH
SGPIO group matrix: SGPIO OD0-OD3
ADC0_CH15 user option raw=4095 mv=2973 level=HIGH
User option CH15: ON
PC0/I2C0_SDA SMBus slave open-drain
PC1/I2C0_SCL SMBus slave open-drain
I2C0 SMBus slave addr7=0x6A write=0xD4 read=0xD5, PEC optional in software
PA13/I2C1_SDA SMBus slave open-drain
PA12/I2C1_SCL SMBus slave open-drain
I2C1 SMBus slave addr7=0x60 write=0xC0 read=0xC1, profile=UBM controller, UBM checksum seed 0xA5
PD0/USCI0_CLK SMBus slave open-drain
PD1/USCI0_DAT0 SMBus slave open-drain
USCI0 SMBus slave addr7=0x61 write=0xC2 read=0xC3, profile=UBM controller, UBM checksum seed 0xA5
SMBus role: I2C1/USCI0 UBM controller, I2C0 Generic SMBus, UBM checksum seed 0xA5
SMBus RX cmd=0x10 (SMB_EXAMPLE_SEND_BYTE_A) bus=I2C0
SMBus RX info raw=2 payload=0 proto=1
SMBus RX pec rs=0 pec=1 valid=1
SMBus RX raw=10 9E proto=SEND_BYTE bus=I2C0
[SMBus I2C0] write done cmd=0x10
SMBus RX cmd=0x11 (SMB_EXAMPLE_SEND_BYTE_B) bus=I2C0
SMBus RX info raw=2 payload=0 proto=1
SMBus RX pec rs=0 pec=1 valid=1
SMBus RX raw=11 99 proto=SEND_BYTE bus=I2C0
[SMBus I2C0] write done cmd=0x11
SMBus RX cmd=0x12 (SMB_EXAMPLE_RECEIVE_SELECT_A) bus=I2C0
SMBus RX info raw=2 payload=0 proto=1
SMBus RX pec rs=0 pec=1 valid=1
SMBus RX raw=12 90 proto=SEND_BYTE bus=I2C0
[SMBus I2C0] write done cmd=0x12
SMBus TX cmd=0x12 (SMB_EXAMPLE_RECEIVE_SELECT_A) proto=6 (RECEIVE_BYTE) len=2 bus=I2C0 raw=00 FB
SMBus RX cmd=0x13 (SMB_EXAMPLE_RECEIVE_SELECT_B) bus=I2C0
SMBus RX info raw=2 payload=0 proto=1
SMBus RX pec rs=0 pec=1 valid=1
SMBus RX raw=13 97 proto=SEND_BYTE bus=I2C0
[SMBus I2C0] write done cmd=0x13
SMBus TX cmd=0x13 (SMB_EXAMPLE_RECEIVE_SELECT_B) proto=6 (RECEIVE_BYTE) len=2 bus=I2C0 raw=80 72
SMBus RX cmd=0x12 (SMB_EXAMPLE_RECEIVE_SELECT_A) bus=I2C0
SMBus RX info raw=2 payload=0 proto=1
SMBus RX pec rs=0 pec=1 valid=1
SMBus RX raw=12 90 proto=SEND_BYTE bus=I2C0
[SMBus I2C0] write done cmd=0x12
SMBus TX cmd=0x12 (SMB_EXAMPLE_RECEIVE_SELECT_A) proto=6 (RECEIVE_BYTE) len=2 bus=I2C0 raw=01 FC
SMBus RX cmd=0x20 (SMB_EXAMPLE_WRITE_BYTE_A) bus=I2C0
SMBus RX info raw=3 payload=1 proto=2
SMBus RX pec rs=0 pec=1 valid=1
SMBus RX raw=20 00 2A proto=WRITE_BYTE bus=I2C0
[SMBus I2C0] write done cmd=0x20
SMBus RX cmd=0x21 (SMB_EXAMPLE_WRITE_BYTE_B) bus=I2C0
SMBus RX info raw=3 payload=1 proto=2
SMBus RX pec rs=0 pec=1 valid=1
SMBus RX raw=21 81 B1 proto=WRITE_BYTE bus=I2C0
[SMBus I2C0] write done cmd=0x21
SMBus RX cmd=0x22 (SMB_EXAMPLE_READ_BYTE_A) bus=I2C0
SMBus RX info raw=1 payload=0 proto=4
SMBus RX pec rs=1 pec=0 valid=1
SMBus RX raw=22 proto=READ_BYTE bus=I2C0
SMBus TX cmd=0x22 (SMB_EXAMPLE_READ_BYTE_A) proto=4 (READ_BYTE) len=2 bus=I2C0 raw=00 FB
SMBus RX cmd=0x23 (SMB_EXAMPLE_READ_BYTE_B) bus=I2C0
SMBus RX info raw=1 payload=0 proto=4
SMBus RX pec rs=1 pec=0 valid=1
SMBus RX raw=23 proto=READ_BYTE bus=I2C0
SMBus TX cmd=0x23 (SMB_EXAMPLE_READ_BYTE_B) proto=4 (READ_BYTE) len=2 bus=I2C0 raw=80 19
SMBus RX cmd=0x30 (SMB_EXAMPLE_WRITE_WORD_A) bus=I2C0
SMBus RX info raw=4 payload=2 proto=3
SMBus RX pec rs=0 pec=1 valid=1
SMBus RX raw=30 34 02 D7 proto=WRITE_WORD bus=I2C0
[SMBus I2C0] write done cmd=0x30
SMBus RX cmd=0x31 (SMB_EXAMPLE_WRITE_WORD_B) bus=I2C0
SMBus RX info raw=4 payload=2 proto=3
SMBus RX pec rs=0 pec=1 valid=1
SMBus RX raw=31 CD 83 9B proto=WRITE_WORD bus=I2C0
[SMBus I2C0] write done cmd=0x31
SMBus RX cmd=0x32 (SMB_EXAMPLE_READ_WORD_A) bus=I2C0
SMBus RX info raw=1 payload=0 proto=5
SMBus RX pec rs=1 pec=0 valid=1
SMBus RX raw=32 proto=READ_WORD bus=I2C0
SMBus TX cmd=0x32 (SMB_EXAMPLE_READ_WORD_A) proto=5 (READ_WORD) len=3 bus=I2C0 raw=32 00 5B
SMBus RX cmd=0x33 (SMB_EXAMPLE_READ_WORD_B) bus=I2C0
SMBus RX info raw=1 payload=0 proto=5
SMBus RX pec rs=1 pec=0 valid=1
SMBus RX raw=33 proto=READ_WORD bus=I2C0
SMBus TX cmd=0x33 (SMB_EXAMPLE_READ_WORD_B) proto=5 (READ_WORD) len=3 bus=I2C0 raw=33 80 D1
SMBus RX cmd=0x40 (SMB_EXAMPLE_BLOCK_WRITE_A) bus=I2C0
SMBus RX info raw=11 payload=9 proto=7
SMBus RX pec rs=0 pec=1 valid=1
SMBus RX raw=40 08 10 11 12 13 14 15 16 04 7F proto=BLOCK_WRITE bus=I2C0
[SMBus I2C0] write done cmd=0x40
SMBus RX cmd=0x41 (SMB_EXAMPLE_BLOCK_WRITE_B) bus=I2C0
SMBus RX info raw=19 payload=17 proto=7
SMBus RX pec rs=0 pec=1 valid=1
SMBus RX raw=41 10 20 21 22 23 24 25 26 27 28 29 2A 2B 2C 2D 2E 85 E0 proto=BLOCK_WRITE bus=I2C0
[SMBus I2C0] write done cmd=0x41
SMBus RX cmd=0x42 (SMB_EXAMPLE_BLOCK_READ_A) bus=I2C0
SMBus RX info raw=1 payload=0 proto=8
SMBus RX pec rs=1 pec=0 valid=1
SMBus RX raw=42 proto=BLOCK_READ bus=I2C0
SMBus TX cmd=0x42 (SMB_EXAMPLE_BLOCK_READ_A) proto=8 (BLOCK_READ) len=10 bus=I2C0 raw=08 10 11 12 13 14 15 16 00 7D
SMBus RX cmd=0x43 (SMB_EXAMPLE_BLOCK_READ_B) bus=I2C0
SMBus RX info raw=1 payload=0 proto=8
SMBus RX pec rs=1 pec=0 valid=1
SMBus RX raw=43 proto=BLOCK_READ bus=I2C0
SMBus TX cmd=0x43 (SMB_EXAMPLE_BLOCK_READ_B) proto=8 (BLOCK_READ) len=18 bus=I2C0 raw=10 20 21 22 23 24 25 26 27 28 29 2A 2B 2C 2D 2E 80 C2
SMBus RX cmd=0x12 (SMB_EXAMPLE_RECEIVE_SELECT_A) bus=I2C0
SMBus RX info raw=2 payload=0 proto=1
SMBus RX pec rs=0 pec=1 valid=1
SMBus RX raw=12 90 proto=SEND_BYTE bus=I2C0
[SMBus I2C0] write done cmd=0x12
SMBus TX cmd=0x12 (SMB_EXAMPLE_RECEIVE_SELECT_A) proto=6 (RECEIVE_BYTE) len=2 bus=I2C0 raw=02 F5
SMBus RX cmd=0x50 (SMB_EXAMPLE_PROCESS_CALL_A) bus=I2C0
SMBus RX info raw=3 payload=2 proto=9
SMBus RX pec rs=1 pec=0 valid=1
SMBus RX raw=50 34 06 proto=PROCESS_CALL bus=I2C0
SMBus TX cmd=0x50 (SMB_EXAMPLE_PROCESS_CALL_A) proto=9 (PROCESS_CALL) len=3 bus=I2C0 raw=45 00 D9
SMBus RX cmd=0x51 (SMB_EXAMPLE_PROCESS_CALL_B) bus=I2C0
SMBus RX info raw=3 payload=2 proto=9
SMBus RX pec rs=1 pec=0 valid=1
SMBus RX raw=51 CD 87 proto=PROCESS_CALL bus=I2C0
SMBus TX cmd=0x51 (SMB_EXAMPLE_PROCESS_CALL_B) proto=9 (PROCESS_CALL) len=3 bus=I2C0 raw=32 80 E5
SMBus RX cmd=0x60 (SMB_EXAMPLE_BLOCK_PROC_CALL_A) bus=I2C0
SMBus RX info raw=10 payload=9 proto=10
SMBus RX pec rs=1 pec=0 valid=1
SMBus RX raw=60 08 01 02 03 04 05 06 07 08 proto=BLOCK_WRITE_READ_PROCESS_CALL bus=I2C0
SMBus TX cmd=0x60 (SMB_EXAMPLE_BLOCK_PROC_CALL_A) proto=10 (BLOCK_WRITE_READ_PROCESS_CALL) len=10 bus=I2C0 raw=08 02 03 04 05 06 07 08 00 D1
SMBus RX cmd=0x61 (SMB_EXAMPLE_BLOCK_PROC_CALL_B) bus=I2C0
SMBus RX info raw=18 payload=17 proto=10
SMBus RX pec rs=1 pec=0 valid=1
SMBus RX raw=61 10 11 12 13 14 15 16 17 18 19 1A 1B 1C 1D 1E 1F 89 proto=BLOCK_WRITE_READ_PROCESS_CALL bus=I2C0
SMBus TX cmd=0x61 (SMB_EXAMPLE_BLOCK_PROC_CALL_B) proto=10 (BLOCK_WRITE_READ_PROCESS_CALL) len=18 bus=I2C0 raw=10 89 1F 1E 1D 1C 1B 1A 19 18 17 16 15 14 13 12 80 2F
SMBus RX cmd=0x12 (SMB_EXAMPLE_RECEIVE_SELECT_A) bus=I2C0
SMBus RX info raw=2 payload=0 proto=1
SMBus RX pec rs=0 pec=1 valid=1
SMBus RX raw=12 90 proto=SEND_BYTE bus=I2C0
[SMBus I2C0] write done cmd=0x12
SMBus TX cmd=0x12 (SMB_EXAMPLE_RECEIVE_SELECT_A) proto=6 (RECEIVE_BYTE) len=2 bus=I2C0 raw=03 F2
SMBus RX cmd=0x20 (SMB_EXAMPLE_WRITE_BYTE_A) bus=I2C0
SMBus RX info raw=3 payload=1 proto=0
SMBus RX pec rs=0 pec=1 valid=0
SMBus RX raw=20 4A 24 proto=UNKNOWN bus=I2C0
[SMBus I2C0] PEC error cmd=0x20 status=0xA0
SMBus RX cmd=0x12 (SMB_EXAMPLE_RECEIVE_SELECT_A) bus=I2C0
SMBus RX info raw=2 payload=0 proto=1
SMBus RX pec rs=0 pec=1 valid=1
SMBus RX raw=12 90 proto=SEND_BYTE bus=I2C0
[SMBus I2C0] write done cmd=0x12
SMBus TX cmd=0x12 (SMB_EXAMPLE_RECEIVE_SELECT_A) proto=6 (RECEIVE_BYTE) len=2 bus=I2C0 raw=04 E7
SMBus RX cmd=0x10 (SMB_EXAMPLE_SEND_BYTE_A) bus=I2C0
SMBus RX info raw=2 payload=0 proto=1
SMBus RX pec rs=0 pec=1 valid=1
SMBus RX raw=10 9E proto=SEND_BYTE bus=I2C0
[SMBus I2C0] write done cmd=0x10
SMBus RX cmd=0x11 (SMB_EXAMPLE_SEND_BYTE_B) bus=I2C0
SMBus RX info raw=2 payload=0 proto=1
SMBus RX pec rs=0 pec=1 valid=1
SMBus RX raw=11 99 proto=SEND_BYTE bus=I2C0
[SMBus I2C0] write done cmd=0x11
SMBus RX cmd=0x12 (SMB_EXAMPLE_RECEIVE_SELECT_A) bus=I2C0
SMBus RX info raw=2 payload=0 proto=1
SMBus RX pec rs=0 pec=1 valid=1
SMBus RX raw=12 90 proto=SEND_BYTE bus=I2C0
[SMBus I2C0] write done cmd=0x12
SMBus TX cmd=0x12 (SMB_EXAMPLE_RECEIVE_SELECT_A) proto=6 (RECEIVE_BYTE) len=2 bus=I2C0 raw=05 E0
SMBus RX cmd=0x13 (SMB_EXAMPLE_RECEIVE_SELECT_B) bus=I2C0
SMBus RX info raw=2 payload=0 proto=1
SMBus RX pec rs=0 pec=1 valid=1
SMBus RX raw=13 97 proto=SEND_BYTE bus=I2C0
[SMBus I2C0] write done cmd=0x13
SMBus TX cmd=0x13 (SMB_EXAMPLE_RECEIVE_SELECT_B) proto=6 (RECEIVE_BYTE) len=2 bus=I2C0 raw=81 75
SMBus RX cmd=0x12 (SMB_EXAMPLE_RECEIVE_SELECT_A) bus=I2C0
SMBus RX info raw=2 payload=0 proto=1
SMBus RX pec rs=0 pec=1 valid=1
SMBus RX raw=12 90 proto=SEND_BYTE bus=I2C0
[SMBus I2C0] write done cmd=0x12
SMBus TX cmd=0x12 (SMB_EXAMPLE_RECEIVE_SELECT_A) proto=6 (RECEIVE_BYTE) len=2 bus=I2C0 raw=06 E9
SMBus RX cmd=0x20 (SMB_EXAMPLE_WRITE_BYTE_A) bus=I2C0
SMBus RX info raw=3 payload=1 proto=2
SMBus RX pec rs=0 pec=1 valid=1
SMBus RX raw=20 00 2A proto=WRITE_BYTE bus=I2C0
[SMBus I2C0] write done cmd=0x20
SMBus RX cmd=0x21 (SMB_EXAMPLE_WRITE_BYTE_B) bus=I2C0
SMBus RX info raw=3 payload=1 proto=2
SMBus RX pec rs=0 pec=1 valid=1
SMBus RX raw=21 81 B1 proto=WRITE_BYTE bus=I2C0
[SMBus I2C0] write done cmd=0x21
SMBus RX cmd=0x22 (SMB_EXAMPLE_READ_BYTE_A) bus=I2C0
SMBus RX info raw=1 payload=0 proto=4
SMBus RX pec rs=1 pec=0 valid=1
SMBus RX raw=22 proto=READ_BYTE bus=I2C0
SMBus TX cmd=0x22 (SMB_EXAMPLE_READ_BYTE_A) proto=4 (READ_BYTE) len=2 bus=I2C0 raw=01 FC
SMBus RX cmd=0x23 (SMB_EXAMPLE_READ_BYTE_B) bus=I2C0
SMBus RX info raw=1 payload=0 proto=4
SMBus RX pec rs=1 pec=0 valid=1
SMBus RX raw=23 proto=READ_BYTE bus=I2C0
SMBus TX cmd=0x23 (SMB_EXAMPLE_READ_BYTE_B) proto=4 (READ_BYTE) len=2 bus=I2C0 raw=81 1E
SMBus RX cmd=0x30 (SMB_EXAMPLE_WRITE_WORD_A) bus=I2C0
SMBus RX info raw=4 payload=2 proto=3
SMBus RX pec rs=0 pec=1 valid=1
SMBus RX raw=30 34 02 D7 proto=WRITE_WORD bus=I2C0
[SMBus I2C0] write done cmd=0x30
SMBus RX cmd=0x31 (SMB_EXAMPLE_WRITE_WORD_B) bus=I2C0
SMBus RX info raw=4 payload=2 proto=3
SMBus RX pec rs=0 pec=1 valid=1
SMBus RX raw=31 CD 83 9B proto=WRITE_WORD bus=I2C0
[SMBus I2C0] write done cmd=0x31
SMBus RX cmd=0x32 (SMB_EXAMPLE_READ_WORD_A) bus=I2C0
SMBus RX info raw=1 payload=0 proto=5
SMBus RX pec rs=1 pec=0 valid=1
SMBus RX raw=32 proto=READ_WORD bus=I2C0
SMBus TX cmd=0x32 (SMB_EXAMPLE_READ_WORD_A) proto=5 (READ_WORD) len=3 bus=I2C0 raw=32 01 5C
SMBus RX cmd=0x33 (SMB_EXAMPLE_READ_WORD_B) bus=I2C0
SMBus RX info raw=1 payload=0 proto=5
SMBus RX pec rs=1 pec=0 valid=1
SMBus RX raw=33 proto=READ_WORD bus=I2C0
SMBus TX cmd=0x33 (SMB_EXAMPLE_READ_WORD_B) proto=5 (READ_WORD) len=3 bus=I2C0 raw=33 81 D6
SMBus RX cmd=0x40 (SMB_EXAMPLE_BLOCK_WRITE_A) bus=I2C0
SMBus RX info raw=11 payload=9 proto=7
SMBus RX pec rs=0 pec=1 valid=1
SMBus RX raw=40 08 10 11 12 13 14 15 16 04 7F proto=BLOCK_WRITE bus=I2C0
[SMBus I2C0] write done cmd=0x40
SMBus RX cmd=0x41 (SMB_EXAMPLE_BLOCK_WRITE_B) bus=I2C0
SMBus RX info raw=19 payload=17 proto=7
SMBus RX pec rs=0 pec=1 valid=1
SMBus RX raw=41 10 20 21 22 23 24 25 26 27 28 29 2A 2B 2C 2D 2E 85 E0 proto=BLOCK_WRITE bus=I2C0
[SMBus I2C0] write done cmd=0x41
SMBus RX cmd=0x42 (SMB_EXAMPLE_BLOCK_READ_A) bus=I2C0
SMBus RX info raw=1 payload=0 proto=8
SMBus RX pec rs=1 pec=0 valid=1
SMBus RX raw=42 proto=BLOCK_READ bus=I2C0
SMBus TX cmd=0x42 (SMB_EXAMPLE_BLOCK_READ_A) proto=8 (BLOCK_READ) len=10 bus=I2C0 raw=08 10 11 12 13 14 15 16 01 7A
SMBus RX cmd=0x43 (SMB_EXAMPLE_BLOCK_READ_B) bus=I2C0
SMBus RX info raw=1 payload=0 proto=8
SMBus RX pec rs=1 pec=0 valid=1
SMBus RX raw=43 proto=BLOCK_READ bus=I2C0
SMBus TX cmd=0x43 (SMB_EXAMPLE_BLOCK_READ_B) proto=8 (BLOCK_READ) len=18 bus=I2C0 raw=10 20 21 22 23 24 25 26 27 28 29 2A 2B 2C 2D 2E 81 C5
SMBus RX cmd=0x12 (SMB_EXAMPLE_RECEIVE_SELECT_A) bus=I2C0
SMBus RX info raw=2 payload=0 proto=1
SMBus RX pec rs=0 pec=1 valid=1
SMBus RX raw=12 90 proto=SEND_BYTE bus=I2C0
[SMBus I2C0] write done cmd=0x12
SMBus TX cmd=0x12 (SMB_EXAMPLE_RECEIVE_SELECT_A) proto=6 (RECEIVE_BYTE) len=2 bus=I2C0 raw=07 EE
SMBus RX cmd=0x50 (SMB_EXAMPLE_PROCESS_CALL_A) bus=I2C0
SMBus RX info raw=3 payload=2 proto=9
SMBus RX pec rs=1 pec=0 valid=1
SMBus RX raw=50 34 06 proto=PROCESS_CALL bus=I2C0
SMBus TX cmd=0x50 (SMB_EXAMPLE_PROCESS_CALL_A) proto=9 (PROCESS_CALL) len=3 bus=I2C0 raw=45 01 DE
SMBus RX cmd=0x51 (SMB_EXAMPLE_PROCESS_CALL_B) bus=I2C0
SMBus RX info raw=3 payload=2 proto=9
SMBus RX pec rs=1 pec=0 valid=1
SMBus RX raw=51 CD 87 proto=PROCESS_CALL bus=I2C0
SMBus TX cmd=0x51 (SMB_EXAMPLE_PROCESS_CALL_B) proto=9 (PROCESS_CALL) len=3 bus=I2C0 raw=32 81 E2
SMBus RX cmd=0x60 (SMB_EXAMPLE_BLOCK_PROC_CALL_A) bus=I2C0
SMBus RX info raw=10 payload=9 proto=10
SMBus RX pec rs=1 pec=0 valid=1
SMBus RX raw=60 08 01 02 03 04 05 06 07 08 proto=BLOCK_WRITE_READ_PROCESS_CALL bus=I2C0
SMBus TX cmd=0x60 (SMB_EXAMPLE_BLOCK_PROC_CALL_A) proto=10 (BLOCK_WRITE_READ_PROCESS_CALL) len=10 bus=I2C0 raw=08 02 03 04 05 06 07 08 01 D6
SMBus RX cmd=0x61 (SMB_EXAMPLE_BLOCK_PROC_CALL_B) bus=I2C0
SMBus RX info raw=18 payload=17 proto=10
SMBus RX pec rs=1 pec=0 valid=1
SMBus RX raw=61 10 11 12 13 14 15 16 17 18 19 1A 1B 1C 1D 1E 1F 89 proto=BLOCK_WRITE_READ_PROCESS_CALL bus=I2C0
SMBus TX cmd=0x61 (SMB_EXAMPLE_BLOCK_PROC_CALL_B) proto=10 (BLOCK_WRITE_READ_PROCESS_CALL) len=18 bus=I2C0 raw=10 89 1F 1E 1D 1C 1B 1A 19 18 17 16 15 14 13 12 81 28
SMBus RX cmd=0x12 (SMB_EXAMPLE_RECEIVE_SELECT_A) bus=I2C0
SMBus RX info raw=2 payload=0 proto=1
SMBus RX pec rs=0 pec=1 valid=1
SMBus RX raw=12 90 proto=SEND_BYTE bus=I2C0
[SMBus I2C0] write done cmd=0x12
SMBus TX cmd=0x12 (SMB_EXAMPLE_RECEIVE_SELECT_A) proto=6 (RECEIVE_BYTE) len=2 bus=I2C0 raw=08 C3
SMBus RX cmd=0x20 (SMB_EXAMPLE_WRITE_BYTE_A) bus=I2C0
SMBus RX info raw=3 payload=1 proto=0
SMBus RX pec rs=0 pec=1 valid=0
SMBus RX raw=20 4A 24 proto=UNKNOWN bus=I2C0
[SMBus I2C0] PEC error cmd=0x20 status=0xA0
SMBus RX cmd=0x12 (SMB_EXAMPLE_RECEIVE_SELECT_A) bus=I2C0
SMBus RX info raw=2 payload=0 proto=1
SMBus RX pec rs=0 pec=1 valid=1
SMBus RX raw=12 90 proto=SEND_BYTE bus=I2C0
[SMBus I2C0] write done cmd=0x12
SMBus TX cmd=0x12 (SMB_EXAMPLE_RECEIVE_SELECT_A) proto=6 (RECEIVE_BYTE) len=2 bus=I2C0 raw=09 C4
SMBus RX cmd=0x10 (SMB_EXAMPLE_SEND_BYTE_A) bus=I2C0
SMBus RX info raw=2 payload=0 proto=1
SMBus RX pec rs=0 pec=1 valid=1
SMBus RX raw=10 9E proto=SEND_BYTE bus=I2C0
[SMBus I2C0] write done cmd=0x10
SMBus RX cmd=0x11 (SMB_EXAMPLE_SEND_BYTE_B) bus=I2C0
SMBus RX info raw=2 payload=0 proto=1
SMBus RX pec rs=0 pec=1 valid=1
SMBus RX raw=11 99 proto=SEND_BYTE bus=I2C0
[SMBus I2C0] write done cmd=0x11
SMBus RX cmd=0x12 (SMB_EXAMPLE_RECEIVE_SELECT_A) bus=I2C0
SMBus RX info raw=2 payload=0 proto=1
SMBus RX pec rs=0 pec=1 valid=1
SMBus RX raw=12 90 proto=SEND_BYTE bus=I2C0
[SMBus I2C0] write done cmd=0x12
SMBus TX cmd=0x12 (SMB_EXAMPLE_RECEIVE_SELECT_A) proto=6 (RECEIVE_BYTE) len=2 bus=I2C0 raw=0A CD
SMBus RX cmd=0x13 (SMB_EXAMPLE_RECEIVE_SELECT_B) bus=I2C0
SMBus RX info raw=2 payload=0 proto=1
SMBus RX pec rs=0 pec=1 valid=1
SMBus RX raw=13 97 proto=SEND_BYTE bus=I2C0
[SMBus I2C0] write done cmd=0x13
SMBus TX cmd=0x13 (SMB_EXAMPLE_RECEIVE_SELECT_B) proto=6 (RECEIVE_BYTE) len=2 bus=I2C0 raw=82 7C
SMBus RX cmd=0x12 (SMB_EXAMPLE_RECEIVE_SELECT_A) bus=I2C0
SMBus RX info raw=2 payload=0 proto=1
SMBus RX pec rs=0 pec=1 valid=1
SMBus RX raw=12 90 proto=SEND_BYTE bus=I2C0
[SMBus I2C0] write done cmd=0x12
SMBus TX cmd=0x12 (SMB_EXAMPLE_RECEIVE_SELECT_A) proto=6 (RECEIVE_BYTE) len=2 bus=I2C0 raw=0B CA
SMBus RX cmd=0x20 (SMB_EXAMPLE_WRITE_BYTE_A) bus=I2C0
SMBus RX info raw=3 payload=1 proto=2
SMBus RX pec rs=0 pec=1 valid=1
SMBus RX raw=20 00 2A proto=WRITE_BYTE bus=I2C0
[SMBus I2C0] write done cmd=0x20
SMBus RX cmd=0x21 (SMB_EXAMPLE_WRITE_BYTE_B) bus=I2C0
SMBus RX info raw=3 payload=1 proto=2
SMBus RX pec rs=0 pec=1 valid=1
SMBus RX raw=21 81 B1 proto=WRITE_BYTE bus=I2C0
[SMBus I2C0] write done cmd=0x21
SMBus RX cmd=0x22 (SMB_EXAMPLE_READ_BYTE_A) bus=I2C0
SMBus RX info raw=1 payload=0 proto=4
SMBus RX pec rs=1 pec=0 valid=1
SMBus RX raw=22 proto=READ_BYTE bus=I2C0
SMBus TX cmd=0x22 (SMB_EXAMPLE_READ_BYTE_A) proto=4 (READ_BYTE) len=2 bus=I2C0 raw=02 F5
SMBus RX cmd=0x23 (SMB_EXAMPLE_READ_BYTE_B) bus=I2C0
SMBus RX info raw=1 payload=0 proto=4
SMBus RX pec rs=1 pec=0 valid=1
SMBus RX raw=23 proto=READ_BYTE bus=I2C0
SMBus TX cmd=0x23 (SMB_EXAMPLE_READ_BYTE_B) proto=4 (READ_BYTE) len=2 bus=I2C0 raw=82 17
SMBus RX cmd=0x30 (SMB_EXAMPLE_WRITE_WORD_A) bus=I2C0
SMBus RX info raw=4 payload=2 proto=3
SMBus RX pec rs=0 pec=1 valid=1
SMBus RX raw=30 34 02 D7 proto=WRITE_WORD bus=I2C0
[SMBus I2C0] write done cmd=0x30
SMBus RX cmd=0x31 (SMB_EXAMPLE_WRITE_WORD_B) bus=I2C0
SMBus RX info raw=4 payload=2 proto=3
SMBus RX pec rs=0 pec=1 valid=1
SMBus RX raw=31 CD 83 9B proto=WRITE_WORD bus=I2C0
[SMBus I2C0] write done cmd=0x31
SMBus RX cmd=0x32 (SMB_EXAMPLE_READ_WORD_A) bus=I2C0
SMBus RX info raw=1 payload=0 proto=5
SMBus RX pec rs=1 pec=0 valid=1
SMBus RX raw=32 proto=READ_WORD bus=I2C0
SMBus TX cmd=0x32 (SMB_EXAMPLE_READ_WORD_A) proto=5 (READ_WORD) len=3 bus=I2C0 raw=32 02 55
SMBus RX cmd=0x33 (SMB_EXAMPLE_READ_WORD_B) bus=I2C0
SMBus RX info raw=1 payload=0 proto=5
SMBus RX pec rs=1 pec=0 valid=1
SMBus RX raw=33 proto=READ_WORD bus=I2C0
SMBus TX cmd=0x33 (SMB_EXAMPLE_READ_WORD_B) proto=5 (READ_WORD) len=3 bus=I2C0 raw=33 82 DF
SMBus RX cmd=0x40 (SMB_EXAMPLE_BLOCK_WRITE_A) bus=I2C0
SMBus RX info raw=11 payload=9 proto=7
SMBus RX pec rs=0 pec=1 valid=1
SMBus RX raw=40 08 10 11 12 13 14 15 16 04 7F proto=BLOCK_WRITE bus=I2C0
[SMBus I2C0] write done cmd=0x40
SMBus RX cmd=0x41 (SMB_EXAMPLE_BLOCK_WRITE_B) bus=I2C0
SMBus RX info raw=19 payload=17 proto=7
SMBus RX pec rs=0 pec=1 valid=1
SMBus RX raw=41 10 20 21 22 23 24 25 26 27 28 29 2A 2B 2C 2D 2E 85 E0 proto=BLOCK_WRITE bus=I2C0
[SMBus I2C0] write done cmd=0x41
SMBus RX cmd=0x42 (SMB_EXAMPLE_BLOCK_READ_A) bus=I2C0
SMBus RX info raw=1 payload=0 proto=8
SMBus RX pec rs=1 pec=0 valid=1
SMBus RX raw=42 proto=BLOCK_READ bus=I2C0
SMBus TX cmd=0x42 (SMB_EXAMPLE_BLOCK_READ_A) proto=8 (BLOCK_READ) len=10 bus=I2C0 raw=08 10 11 12 13 14 15 16 02 73
SMBus RX cmd=0x43 (SMB_EXAMPLE_BLOCK_READ_B) bus=I2C0
SMBus RX info raw=1 payload=0 proto=8
SMBus RX pec rs=1 pec=0 valid=1
SMBus RX raw=43 proto=BLOCK_READ bus=I2C0
SMBus TX cmd=0x43 (SMB_EXAMPLE_BLOCK_READ_B) proto=8 (BLOCK_READ) len=18 bus=I2C0 raw=10 20 21 22 23 24 25 26 27 28 29 2A 2B 2C 2D 2E 82 CC
SMBus RX cmd=0x12 (SMB_EXAMPLE_RECEIVE_SELECT_A) bus=I2C0
SMBus RX info raw=2 payload=0 proto=1
SMBus RX pec rs=0 pec=1 valid=1
SMBus RX raw=12 90 proto=SEND_BYTE bus=I2C0
[SMBus I2C0] write done cmd=0x12
SMBus TX cmd=0x12 (SMB_EXAMPLE_RECEIVE_SELECT_A) proto=6 (RECEIVE_BYTE) len=2 bus=I2C0 raw=0C DF
SMBus RX cmd=0x50 (SMB_EXAMPLE_PROCESS_CALL_A) bus=I2C0
SMBus RX info raw=3 payload=2 proto=9
SMBus RX pec rs=1 pec=0 valid=1
SMBus RX raw=50 34 06 proto=PROCESS_CALL bus=I2C0
SMBus TX cmd=0x50 (SMB_EXAMPLE_PROCESS_CALL_A) proto=9 (PROCESS_CALL) len=3 bus=I2C0 raw=45 02 D7
SMBus RX cmd=0x51 (SMB_EXAMPLE_PROCESS_CALL_B) bus=I2C0
SMBus RX info raw=3 payload=2 proto=9
SMBus RX pec rs=1 pec=0 valid=1
SMBus RX raw=51 CD 87 proto=PROCESS_CALL bus=I2C0
SMBus TX cmd=0x51 (SMB_EXAMPLE_PROCESS_CALL_B) proto=9 (PROCESS_CALL) len=3 bus=I2C0 raw=32 82 EB
SMBus RX cmd=0x60 (SMB_EXAMPLE_BLOCK_PROC_CALL_A) bus=I2C0
SMBus RX info raw=10 payload=9 proto=10
SMBus RX pec rs=1 pec=0 valid=1
SMBus RX raw=60 08 01 02 03 04 05 06 07 08 proto=BLOCK_WRITE_READ_PROCESS_CALL bus=I2C0
SMBus TX cmd=0x60 (SMB_EXAMPLE_BLOCK_PROC_CALL_A) proto=10 (BLOCK_WRITE_READ_PROCESS_CALL) len=10 bus=I2C0 raw=08 02 03 04 05 06 07 08 02 DF
SMBus RX cmd=0x61 (SMB_EXAMPLE_BLOCK_PROC_CALL_B) bus=I2C0
SMBus RX info raw=18 payload=17 proto=10
SMBus RX pec rs=1 pec=0 valid=1
SMBus RX raw=61 10 11 12 13 14 15 16 17 18 19 1A 1B 1C 1D 1E 1F 89 proto=BLOCK_WRITE_READ_PROCESS_CALL bus=I2C0
SMBus TX cmd=0x61 (SMB_EXAMPLE_BLOCK_PROC_CALL_B) proto=10 (BLOCK_WRITE_READ_PROCESS_CALL) len=18 bus=I2C0 raw=10 89 1F 1E 1D 1C 1B 1A 19 18 17 16 15 14 13 12 82 21
SMBus RX cmd=0x12 (SMB_EXAMPLE_RECEIVE_SELECT_A) bus=I2C0
SMBus RX info raw=2 payload=0 proto=1
SMBus RX pec rs=0 pec=1 valid=1
SMBus RX raw=12 90 proto=SEND_BYTE bus=I2C0
[SMBus I2C0] write done cmd=0x12
SMBus TX cmd=0x12 (SMB_EXAMPLE_RECEIVE_SELECT_A) proto=6 (RECEIVE_BYTE) len=2 bus=I2C0 raw=0D D8
SMBus RX cmd=0x20 (SMB_EXAMPLE_WRITE_BYTE_A) bus=I2C0
SMBus RX info raw=3 payload=1 proto=0
SMBus RX pec rs=0 pec=1 valid=0
SMBus RX raw=20 4A 24 proto=UNKNOWN bus=I2C0
[SMBus I2C0] PEC error cmd=0x20 status=0xA0
SMBus RX cmd=0x12 (SMB_EXAMPLE_RECEIVE_SELECT_A) bus=I2C0
SMBus RX info raw=2 payload=0 proto=1
SMBus RX pec rs=0 pec=1 valid=1
SMBus RX raw=12 90 proto=SEND_BYTE bus=I2C0
[SMBus I2C0] write done cmd=0x12
SMBus TX cmd=0x12 (SMB_EXAMPLE_RECEIVE_SELECT_A) proto=6 (RECEIVE_BYTE) len=2 bus=I2C0 raw=0E D1
